 v-sweep         (dc1.i(vib_l))  (dc2.i(vib_l))  (dc3.i(vib_l))  (dc4.i(vib_l))  (dc1.i(vic_l))  (dc2.i(vic_l))  (dc3.i(vic_l))  (dc4.i(vic_l))  dc1.i(vic_l)/dc1.i(vib_l) dc2.i(vic_l)/dc2.i(vib_l) dc3.i(vic_l)/dc3.i(vib_l) dc4.i(vic_l)/dc4.i(vib_l)
 1.00000000e-01  2.00815516e-13  2.01151034e-13  2.01468016e-13  2.01774440e-13  1.01147412e-13  1.01687176e-13  1.02217217e-13  1.02742557e-13  5.03683250e-01  5.05526488e-01  5.07362006e-01  5.09195102e-01 
 1.50000000e-01  3.01737524e-13  3.02451567e-13  3.03131180e-13  3.03784819e-13  1.51970903e-13  1.52852605e-13  1.53711763e-13  1.54551202e-13  5.03652649e-01  5.05378782e-01  5.07080014e-01  5.08752222e-01 
 2.00000000e-01  4.06480088e-13  4.09147632e-13  4.11677959e-13  4.14115669e-13  2.19124028e-13  2.27064486e-13  2.34628247e-13  2.41925501e-13  5.39076905e-01  5.54969573e-01  5.69931525e-01  5.84197892e-01 
 2.50000000e-01  5.17413499e-13  5.24580721e-13  5.31381172e-13  5.37936384e-13  3.75349477e-13  4.27001222e-13  4.76098257e-13  5.23386557e-13  7.25434256e-01  8.13985731e-01  8.95963730e-01  9.72952513e-01 
 3.00000000e-01  6.47005206e-13  6.66351161e-13  6.84724800e-13  7.02428852e-13  1.14704678e-12  1.49567025e-12  1.82696008e-12  2.14593152e-12  1.77285556e+00  2.24456763e+00  2.66816695e+00  3.05501620e+00 
 3.50000000e-01  8.30320904e-13  8.83947856e-13  9.34913113e-13  9.83972811e-13  6.10036159e-12  8.46664457e-12  1.07151915e-11  1.28800550e-11  7.34699267e+00  9.57821722e+00  1.14611629e+01  1.30898485e+01 
 4.00000000e-01  1.18508406e-12  1.34353357e-12  1.49410560e-12  1.63906420e-12  3.94637615e-11  5.55381439e-11  7.08126221e-11  8.55185850e-11  3.33003901e+01  4.13373697e+01  4.73946567e+01  5.21752503e+01 
 4.50000000e-01  2.18605861e-12  2.71526211e-12  3.21810801e-12  3.70225932e-12  2.65841950e-10  3.75047951e-10  4.78819403e-10  5.78728393e-10  1.21607879e+02  1.38125874e+02  1.48789103e+02  1.56317627e+02 
 5.00000000e-01  6.15169908e-12  8.27157381e-12  1.02859359e-11  1.22253461e-11  1.80348971e-09  2.54540100e-09  3.25039154e-09  3.92914164e-09  2.93169364e+02  3.07728741e+02  3.16003481e+02  3.21393080e+02 
 5.50000000e-01  2.61054352e-11  3.63949207e-11  4.61723697e-11  5.55858928e-11  1.22488148e-08  1.72888604e-08  2.20780938e-08  2.66890690e-08  4.69205537e+02  4.75034978e+02  4.78166790e+02  4.80141051e+02 
 6.00000000e-01  1.41129067e-10  1.98709290e-10  2.53424263e-10  3.06102769e-10  8.31948709e-08  1.17429174e-07  1.49959966e-07  1.81280023e-07  5.89494941e+02  5.90959657e+02  5.91734840e+02  5.92219482e+02 
 6.50000000e-01  8.49078186e-10  1.19796896e-09  1.52950473e-09  1.84870533e-09  5.64728322e-07  7.97142433e-07  1.01799707e-06  1.23063569e-06  6.65107562e+02  6.65411593e+02  6.65573009e+02  6.65674331e+02 
 7.00000000e-01  5.32063233e-09  7.51112182e-09  9.59291748e-09  1.15974415e-08  3.81899250e-06  5.39204846e-06  6.88711823e-06  8.32674224e-06  7.17770419e+02  7.17875251e+02  7.17937817e+02  7.17980965e+02 
 7.50000000e-01  3.33058996e-08  4.70792278e-08  6.01802150e-08  7.28025261e-08  2.52115608e-05  3.56534335e-05  4.55885360e-05  5.51626557e-05  7.56969819e+02  7.57307099e+02  7.57533618e+02  7.57702496e+02 
 8.00000000e-01  1.89874160e-07  2.69982557e-07  3.46509193e-07  4.20468189e-07  1.46237861e-04  2.08372802e-04  2.67820398e-04  3.25336502e-04  7.70183056e+02  7.71800981e+02  7.72909934e+02  7.73748194e+02 
 8.50000000e-01  7.95587411e-07  1.14574059e-06  1.48373718e-06  1.81290419e-06  5.73735421e-04  8.30540084e-04  1.07945511e-03  1.32260210e-03  7.21146932e+02  7.24893652e+02  7.27524478e+02  7.29548811e+02 
 9.00000000e-01  2.23784123e-06  3.25879185e-06  4.25390260e-06  5.23008143e-06  1.39507929e-03  2.04564346e-03  2.68340078e-03  3.31169730e-03  6.23404051e+02  6.27730629e+02  6.30809173e+02  6.33201861e+02 
 9.50000000e-01  4.74967032e-06  6.96417478e-06  9.13565168e-06  1.12754557e-05  2.49345870e-03  3.68239153e-03  4.85531560e-03  6.01635998e-03  5.24975110e+02  5.28762078e+02  5.31468993e+02  5.33580206e+02 
 1.00000000e+00  8.47435431e-06  1.24787566e-05  1.64199816e-05  2.03145560e-05  3.76189793e-03  5.57787388e-03  7.37569313e-03  9.16000320e-03  4.43915583e+02  4.46989555e+02  4.49190097e+02  4.50908364e+02 
 1.05000000e+00  1.35080243e-05  1.99479554e-05  2.63020275e-05  3.25926481e-05  5.13964546e-03  7.63922604e-03  1.01190377e-02  1.25841050e-02  3.80488318e+02  3.82957847e+02  3.84724626e+02  3.86102563e+02 
 1.10000000e+00  1.99710095e-05  2.97790085e-05  3.99690811e-05  5.08378668e-05  6.59031539e-03  9.80283957e-03  1.29763331e-02  1.61067792e-02  3.29994104e+02  3.29186230e+02  3.24659281e+02  3.16826417e+02 
 1.15000000e+00  3.85899849e-05  6.64980898e-05  9.86605318e-05  1.34467112e-04  7.83456830e-03  1.14909714e-02  1.50578906e-02  1.85564156e-02  2.03020766e+02  1.72801526e+02  1.52623245e+02  1.37999659e+02 
 1.20000000e+00  9.75583922e-05  1.72656399e-04  2.59395840e-04  3.55662577e-04  8.79032595e-03  1.28488120e-02  1.67968306e-02  2.06591887e-02  9.01032269e+01  7.44183948e+01  6.47536623e+01  5.80864844e+01 
 1.25000000e+00  2.23778338e-04  3.98044216e-04  5.98133684e-04  8.18709341e-04  9.68866552e-03  1.41010140e-02  1.83652474e-02  2.25142417e-02  4.32958149e+01  3.54257478e+01  3.07042521e+01  2.74996761e+01 
 1.30000000e+00  4.62271154e-04  8.17233487e-04  1.21560582e-03  1.64504253e-03  1.04679644e-02  1.51269004e-02  1.95928795e-02  2.39135824e-02  2.26446411e+01  1.85098881e+01  1.61177902e+01  1.45367564e+01 
 1.35000000e+00  8.61663743e-04  1.48788958e-03  2.16538027e-03  2.87527781e-03  1.10508993e-02  1.58416168e-02  2.04092532e-02  2.48149128e-02  1.28250718e+01  1.06470380e+01  9.42525129e+00  8.63044005e+00 
 1.40000000e+00  1.43526590e-03  2.39631630e-03  3.40218976e-03  4.43294542e-03  1.14295890e-02  1.62841551e-02  2.09036337e-02  2.53549563e-02  7.96339484e+00  6.79549488e+00  6.14417043e+00  5.71966353e+00 
 1.45000000e+00  2.14996024e-03  3.47894649e-03  4.83853035e-03  6.21137702e-03  1.16601648e-02  1.65512631e-02  2.12028306e-02  2.56836512e-02  5.42343274e+00  4.75755037e+00  4.38208073e+00  4.13493676e+00 
 1.50000000e+00  2.96084404e-03  4.67578533e-03  6.40393337e-03  8.13197899e-03  1.18024988e-02  1.67185599e-02  2.13927459e-02  2.58946418e-02  3.98619402e+00  3.57556192e+00  3.34056347e+00  3.18429767e+00 
 1.55000000e+00  3.83435869e-03  5.94697559e-03  8.05385482e-03  1.01463038e-02  1.18947584e-02  1.68292961e-02  2.15203445e-02  2.60380112e-02  3.10215067e+00  2.82989158e+00  2.67205517e+00  2.56625581e+00 
 1.60000000e+00  4.74946404e-03  7.26826246e-03  9.76139438e-03  1.22251214e-02  1.19578471e-02  1.69065608e-02  2.16105767e-02  2.61403980e-02  2.51772558e+00  2.32608012e+00  2.21388214e+00  2.13825264e+00 
