 v-sweep         (dc1.i(vib))    (dc2.i(vib))    (dc3.i(vib))    (dc4.i(vib))    (dc5.i(vib))    (dc6.i(vib))    (dc7.i(vib))    (dc8.i(vib))    (dc9.i(vib))    (dc10.i(vib))   (dc1.i(vic))    (dc2.i(vic))    (dc3.i(vic))    (dc4.i(vic))    (dc5.i(vic))    (dc6.i(vic))    (dc7.i(vic))    (dc8.i(vic))    (dc9.i(vic))    (dc10.i(vic))   dc1.i(vic)/dc1.i(vib) dc2.i(vic)/dc2.i(vib) dc3.i(vic)/dc3.i(vib) dc4.i(vic)/dc4.i(vib) dc5.i(vic)/dc5.i(vib) dc6.i(vic)/dc6.i(vib) dc7.i(vic)/dc7.i(vib) dc8.i(vic)/dc8.i(vib) dc9.i(vic)/dc9.i(vib) dc10.i(vic)/dc10.i(vib)
 1.00000000e-01  2.00592513e-13  2.01185788e-13  2.01779825e-13  2.02367418e-13  2.02962731e-13  2.03555608e-13  2.04153507e-13  2.04741512e-13  2.05326256e-13  2.05924744e-13  1.02360604e-13  1.04567796e-13  1.06698709e-13  1.08632221e-13  1.11230111e-13  1.12296798e-13  1.14691270e-13  1.16706500e-13  1.18359186e-13  1.20463366e-13  5.10291249e-01  5.19757367e-01  5.28787794e-01  5.36806871e-01  5.48032193e-01  5.51676269e-01  5.61789372e-01  5.70018746e-01  5.76444477e-01  5.84987327e-01 
 1.50000000e-01  3.01263291e-13  3.02528374e-13  3.03792285e-13  3.05051634e-13  3.06316299e-13  3.07592395e-13  3.08861266e-13  3.10112709e-13  3.11376363e-13  3.12654346e-13  1.53410053e-13  1.56895503e-13  1.60287627e-13  1.63170108e-13  1.68052639e-13  1.68480863e-13  1.72849374e-13  1.76090181e-13  1.78331970e-13  1.81884094e-13  5.09222522e-01  5.18614173e-01  5.27622442e-01  5.34893406e-01  5.48624540e-01  5.47740665e-01  5.59634350e-01  5.67826396e-01  5.72721604e-01  5.81741775e-01 
 2.00000000e-01  4.04738900e-13  4.09495825e-13  4.14225642e-13  4.18944683e-13  4.23707244e-13  4.28480593e-13  4.33207426e-13  4.37905863e-13  4.42622304e-13  4.47499752e-13  2.22735251e-13  2.50822368e-13  2.78476146e-13  2.98788351e-13  3.50137785e-13  3.33763117e-13  3.77883638e-13  4.04673026e-13  4.16725519e-13  4.48789240e-13  5.50318369e-01  6.12515079e-01  6.72281282e-01  7.13192848e-01  8.26367239e-01  7.78945704e-01  8.72292613e-01  9.24109633e-01  9.41492363e-01  1.00288154e+00 
 2.50000000e-01  5.12843919e-13  5.25785014e-13  5.38559511e-13  5.51309997e-13  5.64289028e-13  5.77397015e-13  5.90138463e-13  6.02758427e-13  6.15435897e-13  6.29167236e-13  3.89248166e-13  5.65541807e-13  7.39337734e-13  8.64810258e-13  1.19581631e-12  1.07866187e-12  1.36206247e-12  1.53068316e-12  1.60204884e-12  1.80568943e-12  7.58999281e-01  1.07561416e+00  1.37280601e+00  1.56864606e+00  2.11915570e+00  1.86814591e+00  2.30803879e+00  2.53946373e+00  2.60311244e+00  2.86996736e+00 
 3.00000000e-01  6.35271448e-13  6.71126810e-13  7.06044658e-13  7.40730845e-13  7.76812259e-13  8.13789850e-13  8.48410717e-13  8.82318454e-13  9.16659169e-13  9.57399067e-13  1.21013147e-12  2.36702234e-12  3.50781494e-12  4.32904170e-12  6.51033250e-12  5.72626819e-12  7.59298229e-12  8.69993727e-12  9.16362034e-12  1.05027252e-11  1.90490454e+00  3.52693753e+00  4.96826214e+00  5.84428437e+00  8.38083130e+00  7.03654413e+00  8.94965392e+00  9.86031430e+00  9.99675849e+00  1.09700600e+01 
 3.50000000e-01  8.01167723e-13  9.05916642e-13  1.00489938e-12  1.10249511e-12  1.20863920e-12  1.32022952e-12  1.41732523e-12  1.51026860e-12  1.60563710e-12  1.74041889e-12  6.36074172e-12  1.40058134e-11  2.15447924e-11  2.69695255e-11  4.13935476e-11  3.61968349e-11  4.85395792e-11  5.58552245e-11  5.89149016e-11  6.77664261e-11  7.93933847e+00  1.54603776e+01  2.14397510e+01  2.44622632e+01  3.42480599e+01  2.74170773e+01  3.42473118e+01  3.69836363e+01  3.66925388e+01  3.89368482e+01 
 4.00000000e-01  1.11688305e-12  1.45574111e-12  1.75923034e-12  2.05418119e-12  2.40150761e-12  2.78239060e-12  3.07425984e-12  3.34072672e-12  3.62210583e-12  4.14508951e-12  4.01590207e-11  9.07333382e-11  1.40605958e-10  1.76490019e-10  2.71917969e-10  2.37524891e-10  3.19182700e-10  3.67578071e-10  3.87814160e-10  4.46372185e-10  3.59563347e+01  6.23279358e+01  7.99247002e+01  8.59174546e+01  1.13228027e+02  8.53671983e+01  1.03824243e+02  1.10029374e+02  1.07068700e+02  1.07686983e+02 
 4.50000000e-01  2.04445595e-12  3.32357942e-12  4.38588456e-12  5.39594626e-12  6.72699402e-12  8.26399016e-12  9.25504448e-12  1.00904553e-11  1.10168260e-11  1.34252703e-11  2.63500162e-10  5.98110228e-10  9.28077857e-10  1.16549210e-09  1.79687214e-09  1.56930506e-09  2.10957692e-09  2.42977098e-09  2.56365263e-09  2.95108724e-09  1.28885223e+02  1.79959662e+02  2.11605628e+02  2.15994015e+02  2.67113682e+02  1.89896773e+02  2.27938064e+02  2.40798943e+02  2.32703379e+02  2.19815853e+02 
 5.00000000e-01  5.91714055e-12  1.16600490e-11  1.60735032e-11  2.01665994e-11  2.62279909e-11  3.35517752e-11  3.75285748e-11  4.05507943e-11  4.41307223e-11  5.67977456e-11  1.74087415e-09  3.95470127e-09  6.13781345e-09  7.70857785e-09  1.18858819e-08  1.03802564e-08  1.39547765e-08  1.60732191e-08  1.69590029e-08  1.95223249e-08  2.94208686e+02  3.39166781e+02  3.81859098e+02  3.82244805e+02  4.53175461e+02  3.09380246e+02  3.71844031e+02  3.96372484e+02  3.84290172e+02  3.43716545e+02 
 5.50000000e-01  2.57274800e-11  5.54179590e-11  7.69571247e-11  9.65320408e-11  1.28174976e-10  1.67558762e-10  1.86420400e-10  1.99429033e-10  2.15857787e-10  2.88002784e-10  1.15144935e-08  2.61606465e-08  4.06035916e-08  5.09954158e-08  7.86312958e-08  6.86706726e-08  9.23187825e-08  1.06333622e-07  1.12194112e-07  1.29152337e-07  4.47556213e+02  4.72060808e+02  5.27613158e+02  5.28274502e+02  6.13468388e+02  4.09830388e+02  4.95218241e+02  5.33190279e+02  5.19759391e+02  4.48441278e+02 
 6.00000000e-01  1.37677916e-10  3.05194194e-10  4.22734693e-10  5.28233291e-10  7.07713397e-10  9.34669334e-10  1.03579089e-09  1.10101432e-09  1.18724445e-09  1.61504097e-09  7.61638410e-08  1.73043673e-07  2.68579115e-07  3.37318862e-07  5.20114029e-07  4.54238489e-07  6.10660455e-07  7.03352400e-07  7.42133507e-07  8.54302374e-07  5.53203037e+02  5.66995298e+02  6.35337292e+02  6.38579332e+02  7.34921836e+02  4.85988437e+02  5.89559595e+02  6.38822208e+02  6.25089051e+02  5.28966378e+02 
 6.50000000e-01  7.99632816e-10  1.78807326e-09  2.47022862e-09  3.07862909e-09  4.14013100e-09  5.49323055e-09  6.07464400e-09  6.43552425e-09  6.92664391e-09  9.50988867e-09  5.03517160e-07  1.14387939e-06  1.77534513e-06  2.22974881e-06  3.43766214e-06  3.00271060e-06  4.03650450e-06  4.64866408e-06  4.90568907e-06  5.64690867e-06  6.29685463e+02  6.39727363e+02  7.18696687e+02  7.24266789e+02  8.30326901e+02  5.46620166e+02  6.64484124e+02  7.22344272e+02  7.08234628e+02  5.93793352e+02 
 7.00000000e-01  4.78357190e-09  1.07232976e-08  1.47906361e-08  1.84089040e-08  2.47849518e-08  3.29686554e-08  3.64155693e-08  3.84934229e-08  4.14268658e-08  5.71013540e-08  3.31757579e-06  7.53197622e-06  1.16873814e-05  1.46797987e-05  2.26149403e-05  1.97728559e-05  2.65708060e-05  3.05771272e-05  3.22982745e-05  3.71677978e-05  6.93535262e+02  7.02393655e+02  7.90187883e+02  7.97429263e+02  9.12446412e+02  5.99747113e+02  7.29655103e+02  7.94346799e+02  7.79645621e+02  6.50909220e+02 
 7.50000000e-01  2.85738190e-08  6.39345753e-08  8.80331596e-08  1.09497450e-07  1.47101965e-07  1.96504122e-07  2.16702956e-07  2.27883189e-07  2.46429821e-07  3.39796273e-07  2.14064811e-05  4.84057035e-05  7.50096383e-05  9.42539367e-05  1.44521501e-04  1.27120141e-04  1.70444319e-04  1.95216936e-04  2.07420310e-04  2.38272107e-04  7.49164159e+02  7.57113085e+02  8.52061186e+02  8.60786594e+02  9.82457991e+02  6.46908266e+02  7.86534352e+02  8.56653520e+02  8.41701337e+02  7.01220484e+02 
 8.00000000e-01  1.58750975e-07  3.50380334e-07  4.79948072e-07  5.96521874e-07  7.91755152e-07  1.07338423e-06  1.17767183e-06  1.21253073e-06  1.34267053e-06  1.84043041e-06  1.23459741e-04  2.74029671e-04  4.22040749e-04  5.31270386e-04  7.98024660e-04  7.20720085e-04  9.56759505e-04  1.07324684e-03  1.17024710e-03  1.33372143e-03  7.77694380e+02  7.82092042e+02  8.79346690e+02  8.90613419e+02  1.00791849e+03  6.71446499e+02  8.12416061e+02  8.85129607e+02  8.71581722e+02  7.24679089e+02 
 8.50000000e-01  6.85284920e-07  1.46383951e-06  1.98282963e-06  2.45652993e-06  3.18860380e-06  4.42887677e-06  4.82164726e-06  4.73156668e-06  5.52695794e-06  7.46507444e-06  4.99368837e-04  1.06505795e-03  1.61986553e-03  2.04514838e-03  2.95537172e-03  2.80545680e-03  3.65302250e-03  3.93220512e-03  4.51262244e-03  5.06137170e-03  7.28702503e+02  7.27578363e+02  8.16946397e+02  8.32535504e+02  9.26854482e+02  6.33446570e+02  7.57629561e+02  8.31057742e+02  8.16474901e+02  6.78006863e+02 
 9.00000000e-01  2.05919665e-06  4.25372278e-06  5.69683193e-06  7.01024531e-06  8.96566482e-06  1.25915461e-05  1.36890057e-05  1.27409697e-05  1.57464620e-05  2.09438177e-05  1.26552952e-03  2.60800445e-03  3.92499567e-03  4.96148651e-03  6.96509818e-03  6.85709065e-03  8.80431608e-03  9.14907496e-03  1.09586205e-02  1.21272505e-02  6.14574388e+02  6.13111053e+02  6.88978667e+02  7.07747917e+02  7.76863547e+02  5.44578926e+02  6.43166954e+02  7.18083098e+02  6.95941765e+02  5.79037242e+02 
 9.50000000e-01  4.66340011e-06  9.40081372e-06  1.24850488e-05  1.52502761e-05  1.93873257e-05  2.72190351e-05  2.96799477e-05  2.64636683e-05  3.41820378e-05  4.49355884e-05  2.33488389e-03  4.71494819e-03  7.05166415e-03  8.91125219e-03  1.23226972e-02  1.23531338e-02  1.57548633e-02  1.60092595e-02  1.96872843e-02  2.16103997e-02  5.00682729e+02  5.01546816e+02  5.64808699e+02  5.84333828e+02  6.35605824e+02  4.53841722e+02  5.30825168e+02  6.04952395e+02  5.75954086e+02  4.80919478e+02 
 1.00000000e+00  8.76661497e-06  1.73755426e-05  2.29403495e-05  2.78409394e-05  3.53249778e-05  4.93689621e-05  5.40712298e-05  4.66714971e-05  6.22891164e-05  8.11891380e-05  3.60242837e-03  7.18793323e-03  1.07103578e-02  1.35245230e-02  1.85550113e-02  1.87641788e-02  2.38607167e-02  2.39007183e-02  2.98782215e-02  3.26334556e-02  4.10925812e+02  4.13681080e+02  4.66878580e+02  4.85778257e+02  5.25266043e+02  3.80080480e+02  4.41283041e+02  5.12105241e+02  4.79670016e+02  4.01943615e+02 
 1.05000000e+00  1.45466960e-05  2.84846142e-05  3.74494686e-05  4.52190422e-05  5.73477132e-05  7.97375953e-05  8.76908779e-05  7.38641620e-05  1.01012992e-04  1.30833462e-04  5.00147893e-03  9.90370977e-03  1.47223467e-02  1.85766936e-02  2.53713045e-02  2.57750472e-02  3.27302972e-02  3.24686469e-02  4.10339742e-02  4.46702083e-02  3.43822331e+02  3.47686287e+02  3.93125651e+02  4.10815725e+02  4.42411792e+02  3.23248364e+02  3.73246317e+02  4.39572399e+02  4.06224720e+02  3.41428008e+02 
 1.10000000e+00  2.21192464e-05  4.29930260e-05  5.62661586e-05  6.76725590e-05  8.58602215e-05  1.18764418e-04  1.31075024e-04  1.08367125e-04  1.50963775e-04  1.94610236e-04  6.49126702e-03  1.27842966e-02  1.89794475e-02  2.39327125e-02  3.25928710e-02  3.31991619e-02  4.21290945e-02  4.15058967e-02  5.28582535e-02  5.74076248e-02  2.93466915e+02  2.97357450e+02  3.37315501e+02  3.53654611e+02  3.79603854e+02  2.79537950e+02  3.21412067e+02  3.83011883e+02  3.50138657e+02  2.94987694e+02 
 1.15000000e+00  3.33246247e-05  7.21836014e-05  8.27942419e-05  9.96610185e-05  1.34073713e-04  1.67069299e-04  1.87791695e-04  1.50450543e-04  2.13626597e-04  2.81249063e-04  7.98406306e-03  1.54138881e-02  2.32860265e-02  2.93334951e-02  3.95606560e-02  4.09088483e-02  5.17875621e-02  5.08808227e-02  6.51200731e-02  7.03644749e-02  2.39584485e+02  2.13537256e+02  2.81251763e+02  2.94332684e+02  2.95066460e+02  2.44861555e+02  2.75771312e+02  3.38189691e+02  3.04831300e+02  2.50185633e+02 
 1.20000000e+00  6.37723678e-05  1.46792644e-04  1.56142936e-04  1.86843585e-04  2.71371157e-04  2.55630879e-04  3.31863663e-04  2.10614434e-04  3.48629985e-04  5.09615284e-04  9.17821473e-03  1.75455524e-02  2.67406084e-02  3.37016651e-02  4.50015819e-02  4.80953522e-02  5.98578651e-02  6.01720662e-02  7.60378688e-02  8.09804584e-02  1.43921498e+02  1.19526100e+02  1.71257241e+02  1.80373680e+02  1.65830379e+02  1.88143750e+02  1.80368844e+02  2.85697732e+02  2.18104787e+02  1.58905082e+02 
 1.25000000e+00  1.23653279e-04  2.81429953e-04  3.05159207e-04  3.60053495e-04  5.37547684e-04  4.66342520e-04  6.38120182e-04  3.65316046e-04  6.60989804e-04  9.68782536e-04  1.02943278e-02  1.96682118e-02  2.99246210e-02  3.77842645e-02  5.02734948e-02  5.41013257e-02  6.70142716e-02  6.79211738e-02  8.53188461e-02  9.06744319e-02  8.32515558e+01  6.98867040e+01  9.80623237e+01  1.04940696e+02  9.35237863e+01  1.16011994e+02  1.05018261e+02  1.85924420e+02  1.29077401e+02  9.35962701e+01 
 1.30000000e+00  2.24816683e-04  4.96412887e-04  5.58383013e-04  6.47007599e-04  9.85113341e-04  8.30877319e-04  1.15532853e-03  6.57821015e-04  1.20292513e-03  1.71941156e-03  1.13922712e-02  2.17919717e-02  3.30944169e-02  4.19031625e-02  5.55618701e-02  5.99208695e-02  7.41301379e-02  7.51600989e-02  9.44608213e-02  1.00416293e-01  5.06736023e+01  4.38988840e+01  5.92683090e+01  6.47645601e+01  5.64015000e+01  7.21175896e+01  6.41636867e+01  1.14256154e+02  7.85259359e+01  5.84015458e+01 
 1.35000000e+00  3.86656588e-04  8.19978219e-04  9.61220376e-04  1.08968254e-03  1.69383716e-03  1.39382008e-03  1.96292449e-03  1.12311098e-03  2.06664782e-03  2.84287275e-03  1.24233549e-02  2.38222386e-02  3.61434477e-02  4.59566051e-02  6.06331027e-02  6.56651063e-02  8.10773797e-02  8.24020664e-02  1.03445761e-01  1.10051742e-01  3.21302036e+01  2.90522822e+01  3.76016245e+01  4.21743062e+01  3.57962997e+01  4.71116087e+01  4.13043804e+01  7.33694779e+01  5.00548568e+01  3.87114554e+01 
 1.40000000e+00  6.37462791e-04  1.29098550e-03  1.58134081e-03  1.75111732e-03  2.77971171e-03  2.22042602e-03  3.17408723e-03  1.81545727e-03  3.38737255e-03  4.45340890e-03  1.33148570e-02  2.56412504e-02  3.88873507e-02  4.97531947e-02  6.51595328e-02  7.11643509e-02  8.75278582e-02  8.95597951e-02  1.11898942e-01  1.19213903e-01  2.08872693e+01  1.98617648e+01  2.45913787e+01  2.84122566e+01  2.34411118e+01  3.20498635e+01  2.75757570e+01  4.93318112e+01  3.30341409e+01  2.67691347e+01 
 1.45000000e+00  1.00823726e-03  1.95454226e-03  2.50400264e-03  2.72080113e-03  4.38230436e-03  3.40122689e-03  4.94124596e-03  2.81265899e-03  5.36580130e-03  6.70310471e-03  1.40026117e-02  2.71368116e-02  4.11332767e-02  5.30659676e-02  6.88210722e-02  7.61770004e-02  9.30983530e-02  9.64089661e-02  1.19318820e-01  1.27478756e-01  1.38882109e+01  1.38839728e+01  1.64270101e+01  1.95038024e+01  1.57043114e+01  2.23969182e+01  1.88410684e+01  3.42768059e+01  2.22369062e+01  1.90178674e+01 
 1.50000000e+00  1.51083784e-03  2.84022557e-03  3.79219692e-03  4.09689006e-03  6.59293988e-03  5.04671319e-03  7.41361619e-03  4.22618219e-03  8.22924311e-03  9.76623024e-03  1.44753536e-02  2.82520541e-02  4.27752278e-02  5.56932663e-02  7.14670464e-02  8.04502433e-02  9.74816992e-02  1.02666580e-01  1.25240540e-01  1.34439558e-01  9.58101079e+00  9.94711633e+00  1.12798013e+01  1.35940349e+01  1.08399360e+01  1.59411166e+01  1.31490081e+01  2.42929850e+01  1.52189623e+01  1.37657576e+01 
 1.55000000e+00  2.13026735e-03  3.93874086e-03  5.43192589e-03  5.92886733e-03  9.37208014e-03  7.25006631e-03  1.06456943e-02  6.19617247e-03  1.21003185e-02  1.37687454e-02  1.47748728e-02  2.90198939e-02  4.38738594e-02  5.75717074e-02  7.32269991e-02  8.38077299e-02  1.00619352e-01  1.08031881e-01  1.29502489e-01  1.39856544e-01  6.93568946e+00  7.36780991e+00  8.07703571e+00  9.71040575e+00  7.81331337e+00  1.15595812e+01  9.45164772e+00  1.74352605e+01  1.07024033e+01  1.01575372e+01 
 1.60000000e+00  2.83544330e-03  5.20911933e-03  7.35691745e-03  8.17565812e-03  1.26049732e-02  1.00292398e-02  1.45444472e-02  8.84896282e-03  1.69113911e-02  1.87038784e-02  1.49623700e-02  2.95288460e-02  4.45742702e-02  5.88183426e-02  7.43491938e-02  8.62470716e-02  1.02737588e-01  1.12281024e-01  1.32330434e-01  1.43787134e-01  5.27690677e+00  5.66868296e+00  6.05882430e+00  7.19432512e+00  5.89840158e+00  8.59956224e+00  7.06369835e+00  1.26886085e+01  7.82492898e+00  7.68755717e+00 
