 v-sweep         (dc1.i(vib_v))  (dc2.i(vib_v))  (dc3.i(vib_v))  (dc4.i(vib_v))  (dc5.i(vib_v))  (dc6.i(vib_v))  (dc7.i(vib_v))  (dc8.i(vib_v))  (dc9.i(vib_v))  (dc1.i(vic_v))  (dc2.i(vic_v))  (dc3.i(vic_v))  (dc4.i(vic_v))  (dc5.i(vic_v))  (dc6.i(vic_v))  (dc7.i(vic_v))  (dc8.i(vic_v))  (dc9.i(vic_v))  dc1.i(vic_v)/dc1.i(vib_v) dc2.i(vic_v)/dc2.i(vib_v) dc3.i(vic_v)/dc3.i(vib_v) dc4.i(vic_v)/dc4.i(vib_v) dc5.i(vic_v)/dc5.i(vib_v) dc6.i(vic_v)/dc6.i(vib_v) dc7.i(vic_v)/dc7.i(vib_v) dc8.i(vic_v)/dc8.i(vib_v) dc9.i(vic_v)/dc9.i(vib_v)
 1.00000000e-01  2.00913550e-13  2.01329255e-13  2.01730866e-13  2.02134765e-13  2.02521657e-13  2.02905865e-13  2.03292563e-13  2.03668699e-13  2.04046075e-13  1.01391049e-13  1.02011880e-13  1.02617585e-13  1.03211720e-13  1.03797445e-13  1.04377702e-13  1.04950571e-13  1.05519583e-13  1.06084547e-13  5.04650130e-01  5.06691789e-01  5.08685594e-01  5.10608457e-01  5.12525159e-01  5.14414414e-01  5.16253866e-01  5.18094255e-01  5.19904868e-01 
 1.50000000e-01  3.01946828e-13  3.02834299e-13  3.03693817e-13  3.04542097e-13  3.05374061e-13  3.06204072e-13  3.07016220e-13  3.07818922e-13  3.08616981e-13  1.52676084e-13  1.53796543e-13  1.54870420e-13  1.55911136e-13  1.56927587e-13  1.57925594e-13  1.58904859e-13  1.59870146e-13  1.60825753e-13  5.05638974e-01  5.07857082e-01  5.09955787e-01  5.11952658e-01  5.13886433e-01  5.15752754e-01  5.17578059e-01  5.19364257e-01  5.21117642e-01 
 2.00000000e-01  4.07268449e-13  4.10574357e-13  4.13798308e-13  4.16962298e-13  4.20071245e-13  4.23139639e-13  4.26186972e-13  4.29197732e-13  4.32212225e-13  2.29288954e-13  2.40604841e-13  2.51201316e-13  2.61296777e-13  2.71006804e-13  2.80412328e-13  2.89561014e-13  2.98496708e-13  3.07241104e-13  5.62992185e-01  5.86020137e-01  6.07062212e-01  6.26667635e-01  6.45144858e-01  6.62694540e-01  6.79422491e-01  6.95475967e-01  7.10857044e-01 
 2.50000000e-01  5.19554896e-13  5.28454194e-13  5.37128432e-13  5.45640373e-13  5.54023855e-13  5.62304549e-13  5.70511179e-13  5.78598662e-13  5.86656613e-13  4.40078559e-13  5.13003683e-13  5.81153502e-13  6.45961146e-13  7.08223073e-13  7.68450756e-13  8.26985463e-13  8.84083237e-13  9.39927773e-13  8.47029952e-01  9.70762818e-01  1.08196377e+00  1.18385878e+00  1.27832595e+00  1.36660953e+00  1.44955172e+00  1.52797318e+00  1.60217707e+00 
 3.00000000e-01  6.52947255e-13  6.77036365e-13  7.00524223e-13  7.23562065e-13  7.46269751e-13  7.68693394e-13  7.90871066e-13  8.12829111e-13  8.34626608e-13  1.55786936e-12  2.03993103e-12  2.49028696e-12  2.91844501e-12  3.32970779e-12  3.72743292e-12  4.11392529e-12  4.49085798e-12  4.85950262e-12  2.38590384e+00  3.01303022e+00  3.55489058e+00  4.03344116e+00  4.46180189e+00  4.84905028e+00  5.20176482e+00  5.52497188e+00  5.82236724e+00 
 3.50000000e-01  8.47641559e-13  9.14824234e-13  9.80313213e-13  1.04457610e-12  1.10786448e-12  1.17036222e-12  1.23221646e-12  1.29345408e-12  1.35425876e-12  8.69896602e-12  1.18980624e-11  1.48866030e-11  1.77277292e-11  2.04566551e-11  2.30956801e-11  2.56601032e-11  2.81610485e-11  3.06069033e-11  1.02625525e+01  1.30058452e+01  1.51855578e+01  1.69712185e+01  1.84649435e+01  1.97337881e+01  2.08243471e+01  2.17719738e+01  2.26004840e+01 
 4.00000000e-01  1.24068672e-12  1.44123180e-12  1.63673166e-12  1.82856061e-12  2.01749388e-12  2.20409376e-12  2.38870130e-12  2.57155402e-12  2.75291473e-12  5.58388802e-11  7.70810371e-11  9.69249042e-11  1.15789877e-10  1.33909752e-10  1.51432588e-10  1.68460031e-10  1.85065879e-10  2.01305973e-10  4.50064301e+01  5.34827479e+01  5.92185674e+01  6.33229638e+01  6.63743041e+01  6.87051479e+01  7.05236905e+01  7.19665533e+01  7.31246670e+01 
 4.50000000e-01  2.39270059e-12  3.07198141e-12  3.73414198e-12  4.38389848e-12  5.02389414e-12  5.65588271e-12  6.28115120e-12  6.90052214e-12  7.51480059e-12  3.68586477e-10  5.09642456e-10  6.41413090e-10  7.66683417e-10  8.87005928e-10  1.00336381e-09  1.11643204e-09  1.22670067e-09  1.33454047e-09  1.54046218e+02  1.65900241e+02  1.71769872e+02  1.74886216e+02  1.76557448e+02  1.77401806e+02  1.77743220e+02  1.77769254e+02  1.77588274e+02 
 5.00000000e-01  7.05527360e-12  9.81083896e-12  1.24970437e-11  1.51327855e-11  1.77290078e-11  2.02928227e-11  2.28292278e-11  2.53418837e-11  2.78336754e-11  2.44496205e-09  3.38158774e-09  4.25655783e-09  5.08836521e-09  5.88731852e-09  6.65994632e-09  7.41073050e-09  8.14292501e-09  8.85899181e-09  3.46543903e+02  3.44678753e+02  3.40605181e+02  3.36247758e+02  3.32072646e+02  3.28192209e+02  3.24615907e+02  3.21322800e+02  3.18283219e+02 
 5.50000000e-01  3.06171201e-11  4.40495819e-11  5.71438028e-11  6.99921179e-11  8.26478063e-11  9.51455670e-11  1.07509658e-10  1.19758004e-10  1.31904556e-10  1.62305817e-08  2.24493528e-08  2.82587639e-08  3.37815976e-08  3.90862973e-08  4.42162092e-08  4.92010906e-08  5.40625460e-08  5.88169215e-08  5.30114578e+02  5.09638271e+02  4.94520185e+02  4.82648598e+02  4.72926010e+02  4.64721695e+02  4.57643448e+02  4.51431587e+02  4.45905154e+02 
 6.00000000e-01  1.65562540e-10  2.40361214e-10  3.13276677e-10  3.84823139e-10  4.55297135e-10  5.24891697e-10  5.93742027e-10  6.61948278e-10  7.29587396e-10  1.07737218e-07  1.49019614e-07  1.87584779e-07  2.24247692e-07  2.59462659e-07  2.93517398e-07  3.26609431e-07  3.58882164e-07  3.90444101e-07  6.50734265e+02  6.19981947e+02  5.98783098e+02  5.82729232e+02  5.69875448e+02  5.59196115e+02  5.50086428e+02  5.42160432e+02  5.35157410e+02 
 6.50000000e-01  9.86524994e-10  1.43495315e-09  1.87210496e-09  2.30105794e-09  2.72358819e-09  3.14085067e-09  3.55365574e-09  3.96260286e-09  4.36815281e-09  7.14531218e-07  9.88392393e-07  1.24423863e-06  1.48747223e-06  1.72110490e-06  1.94704411e-06  2.16659943e-06  2.38072164e-06  2.59013018e-06  7.24291044e+02  6.88797675e+02  6.64620125e+02  6.46429715e+02  6.31925526e+02  6.19909802e+02  6.09681856e+02  6.00797438e+02  5.92957777e+02 
 7.00000000e-01  6.09776850e-09  8.87537418e-09  1.15836823e-08  1.42415734e-08  1.68599500e-08  1.94459066e-08  2.20044228e-08  2.45391823e-08  2.70530183e-08  4.71451925e-06  6.52441545e-06  8.21572172e-06  9.82396100e-06  1.13689467e-05  1.28632323e-05  1.43154386e-05  1.57318264e-05  1.71171336e-05  7.73154844e+02  7.35114409e+02  7.09249573e+02  6.89808682e+02  6.74316748e+02  6.61487917e+02  6.50570966e+02  6.41090081e+02  6.32725466e+02 
 7.50000000e-01  3.74625717e-08  5.46386947e-08  7.14079130e-08  8.78798582e-08  1.04118115e-07  1.20164192e-07  1.36047299e-07  1.51789089e-07  1.67406245e-07  3.01356422e-05  4.18203555e-05  5.27585207e-05  6.31721939e-05  7.31856144e-05  8.28776782e-05  9.23026625e-05  1.01500043e-04  1.10499733e-04  8.04420006e+02  7.65398144e+02  7.38832974e+02  7.18847244e+02  7.02909524e+02  6.89703620e+02  6.78460089e+02  6.68691300e+02  6.60069361e+02 
 8.00000000e-01  2.06978221e-07  3.04455079e-07  4.00205306e-07  4.94668499e-07  5.88104944e-07  6.80687203e-07  7.72538202e-07  8.63749999e-07  9.54394135e-07  1.64676693e-04  2.31217155e-04  2.94025831e-04  3.54177793e-04  4.12282522e-04  4.68730893e-04  5.23793947e-04  5.77670104e-04  6.30510560e-04  7.95623290e+02  7.59445879e+02  7.34687487e+02  7.15990191e+02  7.01035634e+02  6.88614229e+02  6.78016887e+02  6.68793174e+02  6.60639601e+02 
 8.50000000e-01  1.05461744e-06  1.56410177e-06  2.06704785e-06  2.56519659e-06  3.05902262e-06  3.54921786e-06  4.03610125e-06  4.51985639e-06  5.00228538e-06  5.40665875e-04  7.78785108e-04  1.00859433e-03  1.23227177e-03  1.45120802e-03  1.66623375e-03  1.87797249e-03  2.08689836e-03  2.29303930e-03  5.12665403e+02  4.97912042e+02  4.87939520e+02  4.80381026e+02  4.74402513e+02  4.69465054e+02  4.65293701e+02  4.61717848e+02  4.58398336e+02 
 9.00000000e-01  7.33023053e-06  1.11011987e-05  1.48956943e-05  1.87063324e-05  2.25289659e-05  2.63609793e-05  3.02005786e-05  3.40464664e-05  3.78977031e-05  8.35696938e-04  1.21243352e-03  1.57847962e-03  1.93672284e-03  2.28883631e-03  2.63591120e-03  2.97871496e-03  3.31781626e-03  3.65365228e-03  1.14006911e+02  1.09216451e+02  1.05968852e+02  1.03533007e+02  1.01595267e+02  9.99929164e+01  9.86310560e+01  9.74496507e+01  9.64082777e+01 
 9.50000000e-01  3.52675173e-05  5.40009107e-05  7.30105034e-05  9.22161877e-05  1.11572115e-04  1.31048518e-04  1.50624742e-04  1.70285677e-04  1.90018728e-04  1.19153998e-03  1.73039536e-03  2.25425344e-03  2.76713547e-03  3.27137671e-03  3.76850425e-03  4.25959339e-03  4.74544174e-03  5.22666942e-03  3.37857629e+01  3.20438182e+01  3.08757417e+01  3.00070469e+01  2.93207377e+01  2.87565576e+01  2.82795067e+01  2.78675331e+01  2.75060751e+01 
 1.00000000e+00  1.46948522e-04  2.25989611e-04  3.06233433e-04  3.87275308e-04  4.68890633e-04  5.50938675e-04  6.33324175e-04  7.15979087e-04  7.98852826e-04  1.49893858e-03  2.16894388e-03  2.81828483e-03  3.45256526e-03  4.07502949e-03  4.68779234e-03  5.29234003e-03  5.88977304e-03  6.48093836e-03  1.02004332e+01  9.59753803e+00  9.20306056e+00  8.91501521e+00  8.69078886e+00  8.50873710e+00  8.35644720e+00  8.22618027e+00  8.11280645e+00 
 1.05000000e+00  4.91833103e-04  7.46524767e-04  1.00158250e-03  1.25647189e-03  1.51095827e-03  1.76492831e-03  2.01832607e-03  2.27112546e-03  2.52331693e-03  1.63979523e-03  2.36474624e-03  3.06578952e-03  3.74952414e-03  4.41974466e-03  5.07891208e-03  5.72874893e-03  6.37052646e-03  7.00522026e-03  3.33404812e+00  3.16767286e+00  3.06094559e+00  2.98416875e+00  2.92512689e+00  2.87768747e+00  2.83836641e+00  2.80500861e+00  2.77619517e+00 
 1.10000000e+00  1.13469033e-03  1.69542286e-03  2.24981006e-03  2.79864764e-03  3.34257084e-03  3.88208367e-03  4.41759294e-03  4.94943333e-03  5.47788501e-03  1.68335626e-03  2.42522231e-03  3.14226420e-03  3.84137178e-03  4.52649796e-03  5.20020227e-03  5.86427393e-03  6.52003202e-03  7.16848795e-03  1.48353804e+00  1.43045276e+00  1.39667977e+00  1.37258143e+00  1.35419657e+00  1.33953895e+00  1.32748173e+00  1.31732899e+00  1.30862330e+00 
 1.15000000e+00  1.98030694e-03  2.93106053e-03  3.86389237e-03  4.78273356e-03  5.68955751e-03  6.58595492e-03  7.47312524e-03  8.35200813e-03  9.22336137e-03  1.69850687e-03  2.44653892e-03  3.16950968e-03  3.87434529e-03  4.56506591e-03  5.24425959e-03  5.91373482e-03  6.57482449e-03  7.22855033e-03  8.57698792e-01  8.34694096e-01  8.20289330e-01  8.10069230e-01  8.02358690e-01  7.96279302e-01  7.91333562e-01  7.87214809e-01  7.83721904e-01 
 1.20000000e+00  2.93942442e-03  4.32735881e-03  5.68397824e-03  7.01584399e-03  8.32724965e-03  9.62108260e-03  1.08995117e-02  1.21642122e-02  1.34165197e-02  1.70532329e-03  2.45624003e-03  3.18197028e-03  3.88952260e-03  4.58290797e-03  5.26472747e-03  5.93679683e-03  6.60045413e-03  7.25672496e-03  5.80155515e-01  5.67607205e-01  5.59813944e-01  5.54391261e-01  5.50350735e-01  5.47207387e-01  5.44684661e-01  5.42612546e-01  5.40879837e-01 
 1.25000000e+00  3.96558154e-03  5.81907298e-03  7.62621907e-03  9.39723255e-03  1.11385012e-02  1.28544296e-02  1.45482516e-02  1.62224488e-02  1.78789893e-02  1.70899713e-03  2.46150774e-03  3.18878587e-03  3.89785231e-03  4.59273122e-03  5.27602638e-03  5.94955691e-03  6.61466330e-03  7.27237299e-03  4.30957507e-01  4.23006852e-01  4.18134575e-01  4.14787257e-01  4.12329372e-01  4.10444223e-01  4.08953397e-01  4.07747523e-01  4.06755262e-01 
 1.30000000e+00  5.03446141e-03  7.37188234e-03  9.64713754e-03  1.18742541e-02  1.40619287e-02  1.62161212e-02  1.83411876e-02  2.04404580e-02  2.25165656e-02  1.71124050e-03  2.46474053e-03  3.19298320e-03  3.90299748e-03  4.59881195e-03  5.28303314e-03  5.95748203e-03  6.62350044e-03  7.28211675e-03  3.39905375e-01  3.34343444e-01  3.30977265e-01  3.28694119e-01  3.27039915e-01  3.25788952e-01  3.24814410e-01  3.24038748e-01  3.23411521e-01 
 1.35000000e+00  6.13250417e-03  8.96655241e-03  1.17221075e-02  1.44171452e-02  1.70627496e-02  1.96664877e-02  2.22338736e-02  2.47691135e-02  2.72755262e-02  1.71273398e-03  2.46690033e-03  3.19579430e-03  3.90644986e-03  4.60289829e-03  5.28774780e-03  5.96282047e-03  6.62945893e-03  7.28869217e-03  2.79287862e-01  2.75122501e-01  2.72629670e-01  2.70958627e-01  2.69762987e-01  2.68870979e-01  2.68186308e-01  2.67650231e-01  2.67224621e-01 
 1.40000000e+00  7.25155445e-03  1.05914661e-02  1.38362108e-02  1.70078039e-02  2.01197704e-02  2.31813193e-02  2.61991480e-02  2.91783569e-02  3.21229652e-02  1.71379226e-03  2.46843475e-03  3.19779505e-03  3.90891044e-03  4.60581398e-03  5.29111496e-03  5.96663622e-03  6.63372088e-03  7.29339834e-03  2.36334467e-01  2.33058835e-01  2.31117832e-01  2.29830404e-01  2.28919808e-01  2.28249087e-01  2.27741613e-01  2.27350735e-01  2.27046236e-01 
 1.45000000e+00  8.38638913e-03  1.22391575e-02  1.59798367e-02  1.96345462e-02  2.32189070e-02  2.67445082e-02  3.02189196e-02  3.36481493e-02  3.70369268e-02  1.71457804e-03  2.46957635e-03  3.19928569e-03  3.91074562e-03  4.60799665e-03  5.29363737e-03  5.96949638e-03  6.63691720e-03  7.29692946e-03  2.04447708e-01  2.01776663e-01  2.00207659e-01  1.99176777e-01  1.98458810e-01  1.97933622e-01  1.97541688e-01  1.97244643e-01  1.97017682e-01 
 1.50000000e+00  9.53348472e-03  1.39045761e-02  1.81464705e-02  2.22894400e-02  2.63519955e-02  3.03466994e-02  3.42826645e-02  3.81668163e-02  4.20046031e-02  1.71518300e-03  2.47045666e-03  3.20043640e-03  3.91216351e-03  4.60967318e-03  5.29557605e-03  5.97169583e-03  6.63937628e-03  7.29964725e-03  1.79911444e-01  1.77672202e-01  1.76366881e-01  1.75516456e-01  1.74926912e-01  1.74502537e-01  1.74189956e-01  1.73956775e-01  1.73782079e-01 
 1.55000000e+00  1.06903624e-02  1.55841607e-02  2.03315115e-02  2.49668760e-02  2.95112941e-02  3.39790286e-02  3.83804167e-02  4.27233092e-02  4.70138784e-02  1.71566235e-03  2.47115509e-03  3.20135021e-03  3.91329026e-03  4.61101114e-03  5.29712390e-03  5.97345253e-03  6.64134100e-03  7.30181930e-03  1.60486827e-01  1.58568378e-01  1.57457561e-01  1.56739284e-01  1.56245644e-01  1.55893918e-01  1.55638032e-01  1.55450061e-01  1.55311996e-01 
 1.60000000e+00  1.18552173e-02  1.72753132e-02  2.25315984e-02  2.76627520e-02  3.26923602e-02  3.76363973e-02  4.25064332e-02  4.73112498e-02  5.20577485e-02  1.71605116e-03  2.47172223e-03  3.20209280e-03  3.91420643e-03  4.61209956e-03  5.29838356e-03  5.97488264e-03  6.64294093e-03  7.30358852e-03  1.44750713e-01  1.43078288e-01  1.42115652e-01  1.41497362e-01  1.41075760e-01  1.40778181e-01  1.40564197e-01  1.40409331e-01  1.40297818e-01 
