 v-sweep         (dc1.i(vib_l))  (dc2.i(vib_l))  (dc3.i(vib_l))  (dc4.i(vib_l))  (dc1.i(vic_l))  (dc2.i(vic_l))  (dc3.i(vic_l))  (dc4.i(vic_l))  dc1.i(vic_l)/dc1.i(vib_l) dc2.i(vic_l)/dc2.i(vib_l) dc3.i(vic_l)/dc3.i(vib_l) dc4.i(vic_l)/dc4.i(vib_l)
 1.00000000e-01  2.03260039e-13  2.04601848e-13  2.05867864e-13  2.07096523e-13  1.04188515e-13  1.06143913e-13  1.08069803e-13  1.09958303e-13  5.12587303e-01  5.18782767e-01  5.24947415e-01  5.30951953e-01 
 1.50000000e-01  3.06952264e-13  3.09799017e-13  3.12513678e-13  3.15137417e-13  1.57461784e-13  1.60786662e-13  1.64018638e-13  1.67166708e-13  5.12984599e-01  5.19003137e-01  5.24836670e-01  5.30456552e-01 
 2.00000000e-01  4.25916305e-13  4.36570667e-13  4.46703440e-13  4.56471125e-13  2.76089248e-13  3.07651714e-13  3.37694794e-13  3.66679550e-13  6.48224180e-01  7.04700836e-01  7.55970882e-01  8.03291884e-01 
 2.50000000e-01  5.69654139e-13  5.98298061e-13  6.25539752e-13  6.51764294e-13  7.50983321e-13  9.57383745e-13  1.15358435e-12  1.34250873e-12  1.31831452e+00  1.60017858e+00  1.84414235e+00  2.05980711e+00 
 3.00000000e-01  7.88025158e-13  8.65374856e-13  9.38909687e-13  1.00971169e-12  3.68777418e-12  5.08206607e-12  6.40703534e-12  7.68274340e-12  4.67976706e+00  5.87267591e+00  6.82391014e+00  7.60884860e+00 
 3.50000000e-01  1.22128402e-12  1.43580252e-12  1.63960256e-12  1.83584320e-12  2.33510257e-11  3.28159629e-11  4.18099419e-11  5.04692016e-11  1.91200616e+01  2.28554849e+01  2.55000467e+01  2.74910197e+01 
 4.00000000e-01  2.34031664e-12  2.97414042e-12  3.57641467e-12  4.15623000e-12  1.56654624e-10  2.20952003e-10  2.82049696e-10  3.40873313e-10  6.69373629e+01  7.42910459e+01  7.88638123e+01  8.20150263e+01 
 4.50000000e-01  6.04424325e-12  8.16101905e-12  1.01724526e-11  1.21090536e-11  1.06201732e-09  1.49884118e-09  1.91392675e-09  2.31356243e-09  1.75707244e+02  1.83658582e+02  1.88148014e+02  1.91060550e+02 
 5.00000000e-01  2.16067966e-11  3.00861997e-11  3.81437549e-11  4.59014220e-11  7.21245600e-09  1.01801002e-08  1.30000615e-08  1.57150610e-08  3.33804966e+02  3.38364442e+02  3.40817560e+02  3.42365450e+02 
 5.50000000e-01  1.01121514e-10  1.42279384e-10  1.81389098e-10  2.19043149e-10  4.89934961e-08  6.91536414e-08  8.83105416e-08  1.06754411e-07  4.84501212e+02  4.86041193e+02  4.86856943e+02  4.87367040e+02 
 6.00000000e-01  5.60908220e-10  7.91226463e-10  1.01008395e-09  1.22079573e-09  3.32772489e-07  4.69707995e-07  5.99829624e-07  7.25108427e-07  5.93274402e+02  5.93645458e+02  5.93841357e+02  5.93963765e+02 
 6.50000000e-01  3.39207035e-09  4.78752115e-09  6.11356260e-09  7.39027112e-09  2.25867214e-06  3.18825004e-06  4.07159765e-06  4.92208639e-06  6.65868305e+02  6.65950068e+02  6.65994268e+02  6.66022438e+02 
 7.00000000e-01  2.12636495e-08  3.00207765e-08  3.83435957e-08  4.63576462e-08  1.52650659e-05  2.15537000e-05  2.75307365e-05  3.32862260e-05  7.17894918e+02  7.17959444e+02  7.18000908e+02  7.18030977e+02 
 7.50000000e-01  1.32618544e-07  1.87511224e-07  2.39733513e-07  2.90054032e-07  1.00381203e-04  1.41992830e-04  1.81592040e-04  2.19757323e-04  7.56916796e+02  7.57249764e+02  7.57474573e+02  7.57642710e+02 
 8.00000000e-01  7.42373762e-07  1.05663027e-06  1.35706181e-06  1.64757137e-06  5.71892391e-04  8.15652395e-04  1.04903935e-03  1.27496260e-03  7.70356417e+02  7.71937374e+02  7.73022528e+02  7.73843623e+02 
 8.50000000e-01  2.98120224e-06  4.29991255e-06  5.57449120e-06  6.81696773e-06  2.16264970e-03  3.13442363e-03  4.07732203e-03  4.99908576e-03  7.25428711e+02  7.28950554e+02  7.31424966e+02  7.33329826e+02 
 9.00000000e-01  8.01186610e-06  1.16828026e-05  1.52650131e-05  1.87821480e-05  5.09844042e-03  7.48194102e-03  9.82017640e-03  1.21249560e-02  6.36361162e+02  6.40423474e+02  6.43312675e+02  6.45557471e+02 
 9.50000000e-01  1.64005411e-05  2.40726838e-05  3.16027364e-05  3.90281293e-05  8.94204980e-03  1.32124534e-02  1.74272559e-02  2.16007926e-02  5.45228949e+02  5.48856684e+02  5.51447687e+02  5.53467282e+02 
 1.00000000e+00  2.84726129e-05  4.19619499e-05  5.52482990e-05  6.83847175e-05  1.33332718e-02  1.97765471e-02  2.61574259e-02  3.24918866e-02  4.68284099e+02  4.71297143e+02  4.73452150e+02  4.75133741e+02 
 1.05000000e+00  4.44511989e-05  6.56875455e-05  8.66531171e-05  1.07418303e-04  1.80741691e-02  2.68714659e-02  3.56013739e-02  4.42810553e-02  4.06607010e+02  4.09080073e+02  4.10849316e+02  4.12230076e+02 
 1.10000000e+00  6.45062098e-05  9.55333871e-05  1.26266950e-04  1.56842663e-04  2.30538702e-02  3.43271005e-02  4.55270730e-02  5.66701729e-02  3.57389937e+02  3.59320458e+02  3.60562071e+02  3.61318610e+02 
 1.15000000e+00  9.46014152e-05  1.52440659e-04  2.19079904e-04  2.93494710e-04  2.80407002e-02  4.14738072e-02  5.46151233e-02  6.75311535e-02  2.96408887e+02  2.72065258e+02  2.49293168e+02  2.30093257e+02 
 1.20000000e+00  2.08986931e-04  3.66434828e-04  5.49379135e-04  7.53619389e-04  3.18509694e-02  4.67710898e-02  6.13585419e-02  7.56871364e-02  1.52406513e+02  1.27638221e+02  1.11687063e+02  1.00431514e+02 
 1.25000000e+00  4.73970138e-04  8.42214840e-04  1.26961292e-03  1.74695058e-03  3.52909275e-02  5.17001518e-02  6.76872876e-02  8.33410181e-02  7.44581245e+01  6.13859426e+01  5.33133261e+01  4.77065689e+01 
 1.30000000e+00  9.75844774e-04  1.74249070e-03  2.62890161e-03  3.61185550e-03  3.85665897e-02  5.62656837e-02  7.33962623e-02  9.00781344e-02  3.95212340e+01  3.22903781e+01  2.79189841e+01  2.49395731e+01 
 1.35000000e+00  1.84797820e-03  3.29176893e-03  4.93139574e-03  6.71525608e-03  4.14521269e-02  6.00748538e-02  7.79536447e-02  9.52644165e-02  2.24310692e+01  1.82500215e+01  1.58076230e+01  1.41862671e+01 
 1.40000000e+00  3.23727640e-03  5.67139819e-03  8.34816891e-03  1.11850854e-02  4.37116821e-02  6.28580033e-02  8.11299272e-02  9.87610685e-02  1.35026104e+01  1.10833345e+01  9.71829009e+00  8.82971069e+00 
 1.45000000e+00  5.20770541e-03  8.86864122e-03  1.27651015e-02  1.68024467e-02  4.52790310e-02  6.46843448e-02  8.31563157e-02  1.00958705e-01  8.69462220e+00  7.29360261e+00  6.51434816e+00  6.00857165e+00 
 1.50000000e+00  7.68497669e-03  1.27021334e-02  1.79128937e-02  2.32273292e-02  4.62890608e-02  6.58369065e-02  8.44302145e-02  1.02342837e-01  6.02331831e+00  5.18313770e+00  4.71337663e+00  4.40613881e+00 
 1.55000000e+00  1.05310027e-02  1.69720958e-02  2.35503056e-02  3.01876587e-02  4.69343933e-02  6.65779171e-02  8.52573331e-02  1.03250039e-01  4.45678295e+00  3.92278702e+00  3.62022195e+00  3.42027317e+00 
 1.60000000e+00  1.36261320e-02  2.15329626e-02  2.95141336e-02  3.75063266e-02  4.73598484e-02  6.70751551e-02  8.58201151e-02  1.03874098e-01  3.47566339e+00  3.11499892e+00  2.90776332e+00  2.76950871e+00 
