 v-sweep         (dc1.i(vib_v))  (dc2.i(vib_v))  (dc3.i(vib_v))  (dc4.i(vib_v))  (dc5.i(vib_v))  (dc6.i(vib_v))  (dc7.i(vib_v))  (dc8.i(vib_v))  (dc9.i(vib_v))  (dc1.i(vic_v))  (dc2.i(vic_v))  (dc3.i(vic_v))  (dc4.i(vic_v))  (dc5.i(vic_v))  (dc6.i(vic_v))  (dc7.i(vic_v))  (dc8.i(vic_v))  (dc9.i(vic_v))  dc1.i(vic_v)/dc1.i(vib_v) dc2.i(vic_v)/dc2.i(vib_v) dc3.i(vic_v)/dc3.i(vib_v) dc4.i(vic_v)/dc4.i(vib_v) dc5.i(vic_v)/dc5.i(vib_v) dc6.i(vic_v)/dc6.i(vib_v) dc7.i(vic_v)/dc7.i(vib_v) dc8.i(vic_v)/dc8.i(vib_v) dc9.i(vic_v)/dc9.i(vib_v)
 1.00000000e-01  2.02742576e-13  2.03984180e-13  2.05199817e-13  2.06390749e-13  2.07564896e-13  2.08728560e-13  2.09881418e-13  2.11013045e-13  2.12165466e-13  1.03922339e-13  1.05661522e-13  1.07355116e-13  1.09011959e-13  1.10641150e-13  1.12256333e-13  1.13852208e-13  1.15431421e-13  1.16999791e-13  5.12582711e-01  5.17988810e-01  5.23173548e-01  5.28182392e-01  5.33043652e-01  5.37810125e-01  5.42459686e-01  5.47034524e-01  5.51455396e-01 
 1.50000000e-01  3.05835779e-13  3.08479386e-13  3.11082581e-13  3.13621315e-13  3.16127679e-13  3.18577401e-13  3.21030762e-13  3.23451576e-13  3.25858185e-13  1.57767246e-13  1.60998919e-13  1.64093478e-13  1.67084749e-13  1.70000836e-13  1.72864845e-13  1.75671157e-13  1.78440240e-13  1.81171471e-13  5.15856079e-01  5.21911436e-01  5.27491694e-01  5.32759545e-01  5.37760049e-01  5.42614902e-01  5.47209731e-01  5.51675285e-01  5.55982571e-01 
 2.00000000e-01  4.21809202e-13  4.31706685e-13  4.41375059e-13  4.50873321e-13  4.60229082e-13  4.69458243e-13  4.78587606e-13  4.87649106e-13  4.96622958e-13  2.87612059e-13  3.21430112e-13  3.53096305e-13  3.83252583e-13  4.12251362e-13  4.40346698e-13  4.67671698e-13  4.94338444e-13  5.20444934e-13  6.81853448e-01  7.44556718e-01  7.99991521e-01  8.50022755e-01  8.95752524e-01  9.37989064e-01  9.77191410e-01  1.01371753e+00  1.04796793e+00 
 2.50000000e-01  5.58668708e-13  5.85348767e-13  6.11390175e-13  6.36936391e-13  6.62091672e-13  6.86922831e-13  7.11512431e-13  7.35822222e-13  7.59952876e-13  8.19981381e-13  1.03862232e-12  1.24295252e-12  1.43724663e-12  1.62391040e-12  1.80446729e-12  1.97994498e-12  2.15108805e-12  2.31850133e-12  1.46774174e+00  1.77436492e+00  2.03299394e+00  2.25649946e+00  2.45269722e+00  2.62688501e+00  2.78272717e+00  2.92338011e+00  3.05084881e+00 
 3.00000000e-01  7.58839292e-13  8.31105874e-13  9.01590855e-13  9.70663088e-13  1.03886512e-12  1.10605922e-12  1.17260198e-12  1.23846308e-12  1.30383496e-12  4.07335544e-12  5.51941396e-12  6.87035105e-12  8.15469832e-12  9.38835816e-12  1.05814107e-11  1.17407554e-11  1.28714293e-11  1.39772017e-11  5.36787629e+00  6.64104796e+00  7.62025370e+00  8.40116248e+00  9.03712908e+00  9.56676682e+00  1.00125665e+01  1.03930666e+01  1.07200697e+01 
 3.50000000e-01  1.14289156e-12  1.34443974e-12  1.54100788e-12  1.73374024e-12  1.92361775e-12  2.11114336e-12  2.29665658e-12  2.48032914e-12  2.66277555e-12  2.53966399e-11  3.49938039e-11  4.39592935e-11  5.24825489e-11  6.06692042e-11  6.85861486e-11  7.62792911e-11  8.37819843e-11  9.11194399e-11  2.22213906e+01  2.60285402e+01  2.85263262e+01  3.02712873e+01  3.15391165e+01  3.24876793e+01  3.32131899e+01  3.37785752e+01  3.42197224e+01 
 4.00000000e-01  2.12206121e-12  2.72368345e-12  3.31014832e-12  3.88566855e-12  4.45252621e-12  5.01220689e-12  5.56602801e-12  6.11467597e-12  6.65870286e-12  1.66716377e-10  2.30442728e-10  2.89974201e-10  3.46568993e-10  4.00928488e-10  4.53496877e-10  5.04579077e-10  5.54396489e-10  6.03116620e-10  7.85634159e+01  8.46070156e+01  8.76015735e+01  8.91915994e+01  9.00451719e+01  9.04784832e+01  9.06533485e+01  9.06665360e+01  9.05756921e+01 
 4.50000000e-01  5.37805859e-12  7.41589798e-12  9.40240647e-12  1.13516361e-11  1.32716853e-11  1.51676793e-11  1.70434838e-11  1.89016135e-11  2.07443591e-11  1.10485912e-09  1.52802691e-09  1.92333868e-09  2.29914952e-09  2.66011691e-09  3.00919040e-09  3.34839499e-09  3.67920073e-09  4.00271996e-09  2.05438282e+02  2.06047455e+02  2.04558129e+02  2.02539043e+02  2.00435503e+02  1.98394912e+02  1.96461888e+02  1.94650088e+02  1.92954621e+02 
 5.00000000e-01  1.91657950e-11  2.74325192e-11  3.54910861e-11  4.33982929e-11  5.11870497e-11  5.88785074e-11  6.64877428e-11  7.40257312e-11  8.15010201e-11  7.33388324e-09  1.01437594e-08  1.27686689e-08  1.52640904e-08  1.76609496e-08  1.99788324e-08  2.22311844e-08  2.44277673e-08  2.65759671e-08  3.82654789e+02  3.69771343e+02  3.59771152e+02  3.51720986e+02  3.45027693e+02  3.39323011e+02  3.34365154e+02  3.29990219e+02  3.26081405e+02 
 5.50000000e-01  8.96511818e-11  1.29948419e-10  1.69231025e-10  2.07775892e-10  2.45743090e-10  2.83236122e-10  3.20328255e-10  3.57073371e-10  3.93513029e-10  4.86905269e-08  6.73468074e-08  8.47750124e-08  1.01343488e-07  1.17257563e-07  1.32647276e-07  1.47601900e-07  1.62186246e-07  1.76449353e-07  5.43110821e+02  5.18257999e+02  5.00942499e+02  4.87753831e+02  4.77155076e+02  4.68327540e+02  4.60783266e+02  4.54209859e+02  4.48395200e+02 
 6.00000000e-01  4.94279919e-10  7.18673315e-10  9.37417671e-10  1.15205483e-09  1.36347484e-09  1.57225654e-09  1.77880544e-09  1.98342244e-09  2.18633809e-09  3.23205254e-07  4.47051008e-07  5.62745253e-07  6.72732863e-07  7.78376720e-07  8.80539962e-07  9.79815141e-07  1.07663247e-06  1.17131744e-06  6.53891129e+02  6.22050378e+02  6.00314321e+02  5.83941708e+02  5.70877215e+02  5.60048529e+02  5.50827604e+02  5.42815512e+02  5.35743965e+02 
 6.50000000e-01  2.95667084e-09  4.30185217e-09  5.61321350e-09  6.89998496e-09  8.16749257e-09  9.41920069e-09  1.06575399e-08  1.18843076e-08  1.31008862e-08  2.14336382e-06  2.96488432e-06  3.73236803e-06  4.46201912e-06  5.16287126e-06  5.84064601e-06  6.49927145e-06  7.14159957e-06  7.76978833e-06  7.24924735e+02  6.89211112e+02  6.64925364e+02  6.46670847e+02  6.32124390e+02  6.20078731e+02  6.09828487e+02  6.00926853e+02  5.93073495e+02 
 7.00000000e-01  1.82780454e-08  2.66065894e-08  3.47276198e-08  4.26976591e-08  5.05493493e-08  5.83039331e-08  6.59763218e-08  7.35775472e-08  8.11160930e-08  1.41336526e-05  1.95605941e-05  2.46321142e-05  2.94546630e-05  3.40876182e-05  3.85686021e-05  4.29234522e-05  4.71709327e-05  5.13252446e-05  7.73258428e+02  7.35178563e+02  7.09294630e+02  6.89842573e+02  6.74343363e+02  6.61509440e+02  6.50588742e+02  6.41104991e+02  6.32738125e+02 
 7.50000000e-01  1.11901916e-07  1.63260587e-07  2.13413025e-07  2.62683621e-07  3.11260652e-07  3.59267094e-07  4.06789520e-07  4.53892129e-07  5.00624394e-07  9.00134142e-05  1.24954572e-04  1.57669976e-04  1.88821120e-04  2.18778237e-04  2.47776500e-04  2.75977733e-04  3.03499651e-04  3.30431462e-04  8.04395645e+02  7.65368876e+02  7.38802032e+02  7.18815733e+02  7.02877911e+02  6.89672124e+02  6.78428819e+02  6.68660309e+02  6.60038676e+02 
 8.00000000e-01  6.08481115e-07  8.96046032e-07  1.17875337e-06  1.45782848e-06  1.73399925e-06  2.00774946e-06  2.27942437e-06  2.54928299e-06  2.81752684e-06  4.84471089e-04  6.80918878e-04  8.66492615e-04  1.04431599e-03  1.21616188e-03  1.38316822e-03  1.54612464e-03  1.70560951e-03  1.86206379e-03  7.96197411e+02  7.59915065e+02  7.35092373e+02  7.16350386e+02  7.01362401e+02  6.88914754e+02  6.78296089e+02  6.69054601e+02  6.60885911e+02 
 8.50000000e-01  2.90686824e-06  4.32083294e-06  5.71958021e-06  7.10621860e-06  8.48248984e-06  9.84933676e-06  1.12108455e-05  1.25642149e-05  1.39113755e-05  1.57741952e-03  2.27304945e-03  2.94453683e-03  3.59841108e-03  4.23850468e-03  4.86737433e-03  5.48611868e-03  6.09677165e-03  6.70005360e-03  5.42652568e+02  5.26067424e+02  5.14816948e+02  5.06374949e+02  4.99676953e+02  4.94182953e+02  4.89358157e+02  4.85248914e+02  4.81624093e+02 
 9.00000000e-01  1.98190531e-05  3.00856539e-05  4.04365674e-05  5.08465857e-05  6.13014189e-05  7.17919210e-05  8.23118145e-05  9.28564479e-05  1.03422345e-04  2.43414875e-03  3.53416313e-03  4.60362158e-03  5.65075772e-03  6.68034538e-03  7.69550066e-03  8.69841510e-03  9.69071495e-03  1.06736519e-02  1.22818620e+02  1.17470045e+02  1.13847982e+02  1.11133474e+02  1.08975379e+02  1.07191736e+02  1.05676386e+02  1.04362327e+02  1.03204505e+02 
 9.50000000e-01  9.24432148e-05  1.41954131e-04  1.92323533e-04  2.43310930e-04  2.94777034e-04  3.46631398e-04  3.98807516e-04  4.51261481e-04  5.03956022e-04  3.46314417e-03  5.03494114e-03  6.56437964e-03  8.06276934e-03  9.53668920e-03  1.09904432e-02  1.24270793e-02  1.38488381e-02  1.52574640e-02  3.74623944e+01  3.54687891e+01  3.41319626e+01  3.31377194e+01  3.23522124e+01  3.17064271e+01  3.11605946e+01  3.06891652e+01  3.02753877e+01 
 1.00000000e+00  3.71865599e-04  5.74868227e-04  7.81934762e-04  9.91803963e-04  1.20376059e-03  1.41734807e-03  1.63225212e-03  1.84824474e-03  2.06515392e-03  4.40256777e-03  6.37852495e-03  8.29522073e-03  1.01686219e-02  1.20079954e-02  1.38193929e-02  1.56070738e-02  1.73741956e-02  1.91231911e-02  1.18391370e+01  1.10956297e+01  1.06085842e+01  1.02526530e+01  9.97540166e+00  9.75017585e+00  9.56168079e+00  9.40037604e+00  9.25993503e+00 
 1.05000000e+00  1.24572468e-03  1.90475603e-03  2.56865203e-03  3.23498357e-03  3.90252455e-03  4.57057308e-03  5.23869485e-03  5.90660680e-03  6.57411774e-03  4.87816665e-03  7.03891157e-03  9.12909863e-03  1.11681492e-02  1.31672442e-02  1.51336412e-02  1.70724233e-02  1.89873439e-02  2.08812849e-02  3.91592678e+00  3.69543997e+00  3.55404255e+00  3.45230478e+00  3.37403239e+00  3.31110365e+00  3.25890776e+00  3.21459419e+00  3.17628703e+00 
 1.10000000e+00  2.93911160e-03  4.41949851e-03  5.89049713e-03  7.35212177e-03  8.80484406e-03  1.02492122e-02  1.16857533e-02  1.31149482e-02  1.45372286e-02  5.03298562e-03  7.25244385e-03  9.39787023e-03  1.14897946e-02  1.35399999e-02  1.55561174e-02  1.75434827e-02  1.95060304e-02  2.14467775e-02  1.71241732e+00  1.64101059e+00  1.59542905e+00  1.56278623e+00  1.53778986e+00  1.51778664e+00  1.50127102e+00  1.48731280e+00  1.47530028e+00 
 1.15000000e+00  5.21282455e-03  7.75603803e-03  1.02637370e-02  1.27401985e-02  1.51903512e-02  1.76159756e-02  2.00220329e-02  2.24092503e-02  2.47792096e-02  5.08667076e-03  7.32742166e-03  9.49302501e-03  1.16045115e-02  1.36737638e-02  1.57086638e-02  1.77143544e-02  1.96949492e-02  2.16535051e-02  9.75799341e-01  9.44737717e-01  9.24909223e-01  9.10857982e-01  9.00161138e-01  8.91728291e-01  8.84743046e-01  8.78875859e-01  8.73857780e-01 
 1.20000000e+00  7.81434848e-03  1.15564900e-02  1.52283635e-02  1.88435038e-02  2.24110305e-02  2.59373421e-02  2.94272410e-02  3.28844768e-02  3.63118261e-02  5.11038343e-03  7.36095771e-03  9.53608868e-03  1.16567722e-02  1.37350279e-02  1.57786387e-02  1.77930425e-02  1.97822471e-02  2.17493409e-02  6.53974345e-01  6.36954446e-01  6.26205744e-01  6.18609596e-01  6.12869092e-01  6.08336760e-01  6.04645285e-01  6.01567946e-01  5.98960263e-01 
 1.25000000e+00  1.06069191e-02  1.56289185e-02  2.05428205e-02  2.53712648e-02  3.01286657e-02  3.48250861e-02  3.94679846e-02  4.40631283e-02  4.86151199e-02  5.12304531e-03  7.37901093e-03  9.55936394e-03  1.16851411e-02  1.37684006e-02  1.58169449e-02  1.78362252e-02  1.98302584e-02  2.18021235e-02  4.82990890e-01  4.72138295e-01  4.65338436e-01  4.60565967e-01  4.56986737e-01  4.54182506e-01  4.51916290e-01  4.50042000e-01  4.48463843e-01 
 1.30000000e+00  1.35204810e-02  1.98744720e-02  2.60804889e-02  3.21706153e-02  3.81650125e-02  4.40776307e-02  4.99187419e-02  5.56962473e-02  6.14164263e-02  5.13071904e-03  7.39001240e-03  9.57359628e-03  1.17025389e-02  1.37889154e-02  1.58405389e-02  1.78628678e-02  1.98599241e-02  2.18347906e-02  3.79477554e-01  3.71834401e-01  3.67078866e-01  3.63764844e-01  3.61297285e-01  3.59378185e-01  3.57838901e-01  3.56575623e-01  3.55520370e-01 
 1.35000000e+00  1.65161923e-02  2.42380446e-02  3.17706609e-02  3.91559365e-02  4.64199943e-02  5.35808128e-02  6.06515767e-02  6.76423956e-02  7.45612820e-02  5.13579778e-03  7.39732201e-03  9.58307815e-03  1.17141535e-02  1.38026337e-02  1.58563382e-02  1.78807298e-02  1.98798337e-02  2.18567349e-02  3.10955314e-01  3.05194670e-01  3.01632950e-01  2.99166730e-01  2.97342426e-01  2.95933141e-01  2.94810634e-01  2.93896062e-01  2.93137863e-01 
 1.40000000e+00  1.95708012e-02  2.86865030e-02  3.75707706e-02  4.62755570e-02  5.48330909e-02  6.32654741e-02  7.15888709e-02  7.98156491e-02  8.79555938e-02  5.13938044e-03  7.40249322e-03  9.58979948e-03  1.17223991e-02  1.38123847e-02  1.58675800e-02  1.78934504e-02  1.98940234e-02  2.18723854e-02  2.62604499e-01  2.58047947e-01  2.55246282e-01  2.53317299e-01  2.51898707e-01  2.50809469e-01  2.49947376e-01  2.49249660e-01  2.48675320e-01 
 1.45000000e+00  2.26694997e-02  3.31986678e-02  4.34535371e-02  5.34962923e-02  6.33653699e-02  7.30870619e-02  8.26805603e-02  9.21605267e-02  1.01538546e-01  5.14203114e-03  7.40632766e-03  9.59479093e-03  1.17285297e-02  1.38196413e-02  1.58759525e-02  1.79029307e-02  1.99046048e-02  2.18840623e-02  2.26825964e-01  2.23091110e-01  2.20805752e-01  2.19240048e-01  2.18094542e-01  2.17219739e-01  2.16531318e-01  2.15977550e-01  2.15524676e-01 
 1.50000000e+00  2.58023444e-02  3.77602736e-02  4.94005461e-02  6.07957060e-02  7.19904728e-02  8.30153785e-02  9.38926782e-02  1.04639353e-01  1.15268809e-01  5.14406587e-03  7.40927621e-03  9.59863381e-03  1.17332539e-02  1.38252374e-02  1.58824132e-02  1.79102501e-02  1.99127781e-02  2.18930855e-02  1.99364282e-01  1.96218817e-01  1.94302180e-01  1.92994780e-01  1.92042598e-01  1.91318927e-01  1.90752362e-01  1.90299132e-01  1.89930699e-01 
 1.55000000e+00  2.89623659e-02  4.23612972e-02  5.53988367e-02  6.81579848e-02  8.06898014e-02  9.30290967e-02  1.05201215e-01  1.17225479e-01  1.29117129e-01  5.14567410e-03  7.41161002e-03  9.60167851e-03  1.17369997e-02  1.38296772e-02  1.58875415e-02  1.79160626e-02  1.99192712e-02  2.19002561e-02  1.77667602e-01  1.74961829e-01  1.73319136e-01  1.72202858e-01  1.71393125e-01  1.70780348e-01  1.70302810e-01  1.69922711e-01  1.69615420e-01 
 1.60000000e+00  3.21445052e-02  4.69944476e-02  6.14389668e-02  7.55715955e-02  8.94497790e-02  1.03112635e-01  1.16588619e-01  1.29899409e-01  1.43062095e-01  5.14697574e-03  7.41350118e-03  9.60414776e-03  1.17400395e-02  1.38332820e-02  1.58917070e-02  1.79207856e-02  1.99245488e-02  2.19060861e-02  1.60119924e-01  1.57752704e-01  1.56320138e-01  1.55349896e-01  1.54648588e-01  1.54119881e-01  1.53709562e-01  1.53384445e-01  1.53122923e-01 
