 v-sweep         (dc1.i(vib_v))  (dc2.i(vib_v))  (dc3.i(vib_v))  (dc4.i(vib_v))  (dc5.i(vib_v))  (dc6.i(vib_v))  (dc7.i(vib_v))  (dc8.i(vib_v))  (dc9.i(vib_v))  (dc1.i(vic_v))  (dc2.i(vic_v))  (dc3.i(vic_v))  (dc4.i(vic_v))  (dc5.i(vic_v))  (dc6.i(vic_v))  (dc7.i(vic_v))  (dc8.i(vic_v))  (dc9.i(vic_v))  dc1.i(vic_v)/dc1.i(vib_v) dc2.i(vic_v)/dc2.i(vib_v) dc3.i(vic_v)/dc3.i(vib_v) dc4.i(vic_v)/dc4.i(vib_v) dc5.i(vic_v)/dc5.i(vib_v) dc6.i(vic_v)/dc6.i(vib_v) dc7.i(vic_v)/dc7.i(vib_v) dc8.i(vic_v)/dc8.i(vib_v) dc9.i(vic_v)/dc9.i(vib_v)
 1.00000000e-01  2.03646186e-13  2.05322247e-13  2.06939839e-13  2.08541013e-13  2.10092819e-13  2.11630131e-13  2.13166560e-13  2.14698938e-13  2.16181187e-13  1.05157425e-13  1.07441831e-13  1.09661177e-13  1.11840665e-13  1.13980801e-13  1.16088939e-13  1.18187869e-13  1.20265955e-13  1.22310468e-13  5.16373164e-01  5.23283921e-01  5.29918153e-01  5.36300574e-01  5.42525928e-01  5.48546364e-01  5.54439066e-01  5.60160923e-01  5.65777577e-01 
 1.50000000e-01  3.07782092e-13  3.11332749e-13  3.14789082e-13  3.18148790e-13  3.21517633e-13  3.24808897e-13  3.28097804e-13  3.31346912e-13  3.34522602e-13  1.60279840e-13  1.64553003e-13  1.68640177e-13  1.72597006e-13  1.76454449e-13  1.80218511e-13  1.83943181e-13  1.87598943e-13  1.91189692e-13  5.20757521e-01  5.28543827e-01  5.35724352e-01  5.42504047e-01  5.48817331e-01  5.54844749e-01  5.60635209e-01  5.66170789e-01  5.71529969e-01 
 2.00000000e-01  4.29048707e-13  4.42283308e-13  4.55195490e-13  4.67853101e-13  4.80297360e-13  4.92595092e-13  5.04791789e-13  5.16895231e-13  5.28782054e-13  3.16740830e-13  3.61802036e-13  4.03979772e-13  4.44156677e-13  4.82793655e-13  5.20197913e-13  5.56611883e-13  5.92135272e-13  6.26887804e-13  7.38239795e-01  8.18032310e-01  8.87486323e-01  9.49350717e-01  1.00519740e+00  1.05603552e+00  1.10265637e+00  1.14556149e+00  1.18553154e+00 
 2.50000000e-01  5.78210884e-13  6.13792982e-13  6.48475309e-13  6.82534837e-13  7.16174658e-13  7.49182679e-13  7.81920111e-13  8.14476013e-13  8.46559330e-13  1.00989815e-12  1.30139745e-12  1.57378213e-12  1.83281595e-12  2.08166817e-12  2.32234573e-12  2.55629705e-12  2.78447650e-12  3.00765823e-12  1.74659138e+00  2.12025469e+00  2.42689599e+00  2.68530755e+00  2.90664874e+00  3.09983906e+00  3.26925605e+00  3.41873358e+00  3.55280264e+00 
 3.00000000e-01  8.11760448e-13  9.08161140e-13  1.00209402e-12  1.09424511e-12  1.18508045e-12  1.27471240e-12  1.36344755e-12  1.45140288e-12  1.53843392e-12  5.33106619e-12  7.25910700e-12  9.06031627e-12  1.07727425e-11  1.24175948e-11  1.40082719e-11  1.55540497e-11  1.70616047e-11  1.85359024e-11  6.56728990e+00  7.99319270e+00  9.04138341e+00  9.84490806e+00  1.04782715e+01  1.09893588e+01  1.14078826e+01  1.17552507e+01  1.20485529e+01 
 3.50000000e-01  1.29053592e-12  1.55926608e-12  1.82127029e-12  2.07825265e-12  2.33147780e-12  2.58150122e-12  2.82894266e-12  3.07399186e-12  3.31693704e-12  3.37454437e-11  4.65416338e-11  5.84955666e-11  6.98598760e-11  8.07753942e-11  9.13312649e-11  1.01588787e-10  1.11592333e-10  1.21375558e-10  2.61483955e+01  2.98484232e+01  3.21180041e+01  3.36147176e+01  3.46455772e+01  3.53791291e+01  3.59105148e+01  3.63020912e+01  3.65926628e+01 
 4.00000000e-01  2.56271483e-12  3.36494812e-12  4.14690067e-12  4.91425025e-12  5.67000028e-12  6.41635535e-12  7.15479042e-12  7.88625663e-12  8.61152521e-12  2.22155100e-10  3.07123527e-10  3.86498776e-10  4.61958475e-10  5.34437775e-10  6.04528902e-10  6.72638486e-10  7.39061700e-10  8.04021817e-10  8.66874056e+01  9.12714005e+01  9.32018406e+01  9.40038564e+01  9.42570986e+01  9.42168676e+01  9.40123256e+01  9.37151471e+01  9.33657857e+01 
 4.50000000e-01  6.87075044e-12  9.58790000e-12  1.22365623e-11  1.48355171e-11  1.73955649e-11  1.99236246e-11  2.24246523e-11  2.49022742e-11  2.73591645e-11  1.47299540e-09  2.03721908e-09  2.56430139e-09  3.06538247e-09  3.54667226e-09  4.01210357e-09  4.46437628e-09  4.90545059e-09  5.33680956e-09  2.14386392e+02  2.12478131e+02  2.09560604e+02  2.06624579e+02  2.03883708e+02  2.01374180e+02  1.99083412e+02  1.96988056e+02  1.95064786e+02 
 5.00000000e-01  2.52210589e-11  3.62433328e-11  4.69880980e-11  5.75311249e-11  6.79161069e-11  7.81712662e-11  8.83169698e-11  9.83676413e-11  1.08334628e-10  9.77834323e-09  1.35248445e-08  1.70247236e-08  2.03519519e-08  2.35477640e-08  2.66382742e-08  2.96414098e-08  3.25701869e-08  3.54344532e-08  3.87705499e+02  3.73167793e+02  3.62319913e+02  3.53755501e+02  3.46718401e+02  3.40768104e+02  3.35625304e+02  3.31106718e+02  3.27083351e+02 
 5.50000000e-01  1.19168117e-10  1.72897816e-10  2.25274570e-10  2.76667721e-10  3.27290355e-10  3.77281383e-10  4.26737420e-10  4.75731205e-10  5.24317090e-10  6.49204744e-08  8.97955027e-08  1.13033099e-07  1.35124389e-07  1.56343147e-07  1.76862757e-07  1.96802246e-07  2.16248033e-07  2.35265503e-07  5.44780568e+02  5.19355912e+02  5.01757027e+02  4.88399545e+02  4.77689441e+02  4.68782094e+02  4.61178789e+02  4.54559279e+02  4.48708438e+02 
 6.00000000e-01  6.58637049e-10  9.57827392e-10  1.24948536e-09  1.53566761e-09  1.81756019e-09  2.09593475e-09  2.37133296e-09  2.64415519e-09  2.91470870e-09  4.30938167e-07  5.96065295e-07  7.50323815e-07  8.96973533e-07  1.03783161e-06  1.17404890e-06  1.30641546e-06  1.43550489e-06  1.56175120e-06  6.54287771e+02  6.22309719e+02  6.00506289e+02  5.84093543e+02  5.71002611e+02  5.60155273e+02  5.50920296e+02  5.42897366e+02  5.35817251e+02 
 6.50000000e-01  3.94167960e-09  5.73521557e-09  7.48366176e-09  9.19932372e-09  1.08893023e-08  1.25582166e-08  1.42093067e-08  1.58449687e-08  1.74670462e-08  2.85773158e-06  3.95306834e-06  4.97635910e-06  5.94920837e-06  6.88366051e-06  7.78734391e-06  8.66549580e-06  9.52191870e-06  1.03594897e-05  7.25003519e+02  6.89262381e+02  6.64963124e+02  6.46700622e+02  6.32148902e+02  6.20099504e+02  6.09846491e+02  6.00942727e+02  5.93087670e+02 
 7.00000000e-01  2.43655443e-08  3.54686504e-08  4.62952155e-08  5.69205576e-08  6.73881743e-08  7.77263743e-08  8.79550286e-08  9.80888383e-08  1.08139110e-07  1.88411189e-05  2.60760001e-05  3.28371179e-05  3.92663610e-05  4.54428760e-05  5.14168116e-05  5.72226080e-05  6.28852776e-05  6.84237501e-05  7.73268952e+02  7.35184444e+02  7.09298304e+02  6.89844982e+02  6.74344965e+02  6.61510486e+02  6.50589386e+02  6.41105336e+02  6.32738237e+02 
 7.50000000e-01  1.49020281e-07  2.17434484e-07  2.84245822e-07  3.49885125e-07  4.14602496e-07  4.78561321e-07  5.41876633e-07  6.04633746e-07  6.66898410e-07  1.19869713e-04  1.66415284e-04  2.09998416e-04  2.51499337e-04  2.91410760e-04  3.30045678e-04  3.67619475e-04  4.04288836e-04  4.40172507e-04  8.04385229e+02  7.65358287e+02  7.38791565e+02  7.18805458e+02  7.02867840e+02  6.89662250e+02  6.78419132e+02  6.68650796e+02  6.60029324e+02 
 8.00000000e-01  8.06754199e-07  1.18838302e-06  1.56365135e-06  1.93415945e-06  2.30085880e-06  2.66438221e-06  3.02518156e-06  3.38359598e-06  3.73988945e-06  6.42461465e-04  9.03221984e-04  1.14960080e-03  1.38572599e-03  1.61394118e-03  1.83575100e-03  2.05219971e-03  2.26405235e-03  2.47189223e-03  7.96353419e+02  7.60042824e+02  7.35202766e+02  7.16448685e+02  7.01451639e+02  6.88996870e+02  6.78372413e+02  6.69126092e+02  6.60953289e+02 
 8.50000000e-01  3.78682170e-06  5.63221662e-06  7.45870670e-06  9.27013882e-06  1.10682635e-05  1.28543668e-05  1.46353780e-05  1.64052072e-05  1.81672426e-05  2.08674110e-03  3.00731629e-03  3.89601454e-03  4.76144426e-03  5.60874144e-03  6.44124668e-03  7.26007720e-03  8.06840136e-03  8.86698575e-03  5.51053435e+02  5.33948974e+02  5.22344516e+02  5.13632466e+02  5.06740868e+02  5.01094048e+02  4.96063524e+02  4.91819532e+02  4.88075486e+02 
 9.00000000e-01  2.56791909e-05  3.90058695e-05  5.24490112e-05  6.59741529e-05  7.95617009e-05  9.31990919e-05  1.06877687e-04  1.20591061e-04  1.34334413e-04  3.21912225e-03  4.67482520e-03  6.09032668e-03  7.47645226e-03  8.83948013e-03  1.01835089e-02  1.15114213e-02  1.28253573e-02  1.41269638e-02  1.25359178e+02  1.19849275e+02  1.16118999e+02  1.13323960e+02  1.11102202e+02  1.09266181e+02  1.07706497e+02  1.06354130e+02  1.05162657e+02 
 9.50000000e-01  1.18799966e-04  1.82560329e-04  2.47468746e-04  3.13206024e-04  3.79587303e-04  4.46492079e-04  5.13829524e-04  5.81543824e-04  6.49584079e-04  4.57666121e-03  6.65585679e-03  8.67952115e-03  1.06624653e-02  1.26133065e-02  1.45376849e-02  1.64396044e-02  1.83219904e-02  2.01871346e-02  3.85240954e+01  3.64583960e+01  3.50732014e+01  3.40429764e+01  3.32290000e+01  3.25597822e+01  3.19942775e+01  3.15057776e+01  3.10770157e+01 
 1.00000000e+00  4.73184112e-04  7.32463559e-04  9.97258624e-04  1.26588731e-03  1.53739116e-03  1.81115585e-03  2.08675696e-03  2.36388560e-03  2.64230800e-03  5.83342873e-03  8.45469685e-03  1.09980132e-02  1.34843400e-02  1.59258522e-02  1.83305050e-02  2.07038997e-02  2.30501903e-02  2.53725783e-02  1.23280317e+01  1.15428225e+01  1.10282458e+01  1.06520856e+01  1.03590112e+01  1.01208877e+01  9.92156733e+00  9.75097540e+00  9.60243028e+00 
 1.05000000e+00  1.58409101e-03  2.42703282e-03  3.27759346e-03  4.13230051e-03  4.98936789e-03  5.84775313e-03  6.70679776e-03  7.56606274e-03  8.42524392e-03  6.48735748e-03  9.36264252e-03  1.21443358e-02  1.48581752e-02  1.75189838e-02  2.01363861e-02  2.27171244e-02  2.52661782e-02  2.77873712e-02  4.09531867e+00  3.85764974e+00  3.70525996e+00  3.59561826e+00  3.51126318e+00  3.44343983e+00  3.38717897e+00  3.33940902e+00  3.29810881e+00 
 1.10000000e+00  3.76123133e-03  5.66577852e-03  7.56089142e-03  9.44584688e-03  1.13208218e-02  1.31862417e-02  1.50425886e-02  1.68903367e-02  1.87299306e-02  6.70368195e-03  9.66049307e-03  1.25187781e-02  1.53058519e-02  1.80373931e-02  2.07235574e-02  2.33714457e-02  2.59862943e-02  2.85721189e-02  1.78231046e+00  1.70506013e+00  1.65572780e+00  1.62037900e+00  1.59329362e+00  1.57160455e+00  1.55368509e+00  1.53853027e+00  1.52547917e+00 
 1.15000000e+00  6.70329741e-03  9.98808522e-03  1.32308185e-02  1.64358895e-02  1.96090663e-02  2.27539719e-02  2.58734445e-02  2.89676641e-02  3.20425773e-02  6.77865553e-03  9.76498988e-03  1.26512075e-02  1.54653341e-02  1.82231932e-02  2.09350974e-02  2.36082539e-02  2.62482095e-02  2.88585852e-02  1.01124195e+00  9.77663853e-01  9.56192361e-01  9.40949016e-01  9.29324877e-01  9.20063430e-01  9.12451140e-01  9.06121026e-01  9.00632461e-01 
 1.20000000e+00  1.00782913e-02  1.49229899e-02  1.96816345e-02  2.43703322e-02  2.90000896e-02  3.35786674e-02  3.81119181e-02  4.26044276e-02  4.70598956e-02  6.81162710e-03  9.81153681e-03  1.27109051e-02  1.55377127e-02  1.83079763e-02  2.10320677e-02  2.37172340e-02  2.63688162e-02  2.89909081e-02  6.75871228e-01  6.57477950e-01  6.45825689e-01  6.37566719e-01  6.31307576e-01  6.26352065e-01  6.22304918e-01  6.18921969e-01  6.16042763e-01 
 1.25000000e+00  1.37050166e-02  2.02162274e-02  2.65933457e-02  3.28639981e-02  3.90458770e-02  4.51513836e-02  5.11897371e-02  5.71680835e-02  6.30921367e-02  6.82917506e-03  9.83651747e-03  1.27430769e-02  1.55768922e-02  1.83540352e-02  2.10849056e-02  2.37767690e-02  2.64349799e-02  2.90636420e-02  4.98297467e-01  4.86565434e-01  4.79182915e-01  4.73980438e-01  4.70063336e-01  4.66982491e-01  4.64483124e-01  4.62408013e-01  4.60653951e-01 
 1.30000000e+00  1.74908042e-02  2.57370719e-02  3.37985376e-02  4.17147794e-02  4.95107733e-02  5.72038524e-02  6.48068085e-02  7.23294997e-02  7.97797718e-02  6.83978495e-03  9.85170697e-03  1.27627079e-02  1.56008710e-02  1.83822926e-02  2.11173875e-02  2.38134316e-02  2.64757864e-02  2.91085614e-02  3.91050341e-01  3.82782743e-01  3.77611245e-01  3.73989057e-01  3.71278642e-01  3.69160233e-01  3.67452620e-01  3.66044097e-01  3.64861427e-01 
 1.35000000e+00  2.13843991e-02  3.14128157e-02  4.12039152e-02  5.08097076e-02  6.02627320e-02  6.95854373e-02  7.87943173e-02  8.79020385e-02  9.69186530e-02  6.84679470e-03  9.86178275e-03  1.27757660e-02  1.56168550e-02  1.84011609e-02  2.11391075e-02  2.38379770e-02  2.65031355e-02  2.91386955e-02  3.20177090e-01  3.13941382e-01  3.10061943e-01  3.07359671e-01  3.05348933e-01  3.03786371e-01  3.02534216e-01  3.01507633e-01  3.00651058e-01 
 1.40000000e+00  2.53551783e-02  3.71998234e-02  4.87534195e-02  6.00807286e-02  7.12220402e-02  8.22050423e-02  9.30500178e-02  1.03772507e-01  1.14384818e-01  6.85173300e-03  9.86890203e-03  1.27850114e-02  1.56281896e-02  1.84145575e-02  2.11545451e-02  2.38554385e-02  2.65226068e-02  2.91601646e-02  2.70230126e-01  2.65294325e-01  2.62238249e-01  2.60119842e-01  2.58551391e-01  2.57338777e-01  2.56372208e-01  2.55584139e-01  2.54930376e-01 
 1.45000000e+00  2.93836726e-02  4.30702469e-02  5.64111768e-02  6.94842012e-02  8.23374930e-02  9.50040658e-02  1.07508054e-01  1.19867917e-01  1.32098256e-01  6.85538287e-03  9.87417575e-03  1.27918708e-02  1.56366091e-02  1.84245182e-02  2.11660325e-02  2.38684409e-02  2.65371145e-02  2.91761694e-02  2.33305856e-01  2.29257468e-01  2.26761282e-01  2.25038337e-01  2.23768269e-01  2.22790807e-01  2.22015375e-01  2.21386299e-01  2.20867181e-01 
 1.50000000e+00  3.34568261e-02  4.90053532e-02  6.41530024e-02  7.89906550e-02  9.35744642e-02  1.07942834e-01  1.22123795e-01  1.36138761e-01  1.50004651e-01  6.85818221e-03  9.87822778e-03  1.27971477e-02  1.56430922e-02  1.84321940e-02  2.11748904e-02  2.38784725e-02  2.65483127e-02  2.91885285e-02  2.04986038e-01  2.01574463e-01  1.99478547e-01  1.98037252e-01  1.96978889e-01  1.96167634e-01  1.95526780e-01  1.95009213e-01  1.94584156e-01 
 1.55000000e+00  3.75654982e-02  5.49919941e-02  7.19618914e-02  8.85793393e-02  1.04908545e-01  1.20993353e-01  1.36865724e-01  1.52550052e-01  1.68065595e-01  6.86039318e-03  9.88143282e-03  1.28013258e-02  1.56482294e-02  1.84382800e-02  2.11819172e-02  2.38864339e-02  2.65572035e-02  2.91983443e-02  1.82624842e-01  1.79688571e-01  1.77890346e-01  1.76657779e-01  1.75755749e-01  1.75066784e-01  1.74524586e-01  1.74088460e-01  1.73731836e-01 
 1.60000000e+00  4.17030598e-02  6.10206135e-02  7.98254660e-02  9.82351326e-02  1.16321933e-01  1.34135187e-01  1.51710816e-01  1.69076214e-01  1.86252993e-01  6.86218153e-03  9.88402842e-03  1.28047123e-02  1.56523959e-02  1.84432185e-02  2.11876218e-02  2.38928995e-02  2.65644262e-02  2.92063208e-02  1.64548634e-01  1.61978516e-01  1.60408863e-01  1.59336028e-01  1.58553234e-01  1.57957224e-01  1.57489756e-01  1.57115100e-01  1.56809940e-01 
