 v-sweep         (dc1.i(vib_v))  (dc2.i(vib_v))  (dc3.i(vib_v))  (dc4.i(vib_v))  (dc5.i(vib_v))  (dc6.i(vib_v))  (dc7.i(vib_v))  (dc8.i(vib_v))  (dc9.i(vib_v))  (dc1.i(vic_v))  (dc2.i(vic_v))  (dc3.i(vic_v))  (dc4.i(vic_v))  (dc5.i(vic_v))  (dc6.i(vic_v))  (dc7.i(vic_v))  (dc8.i(vic_v))  (dc9.i(vic_v))  dc1.i(vic_v)/dc1.i(vib_v) dc2.i(vic_v)/dc2.i(vib_v) dc3.i(vic_v)/dc3.i(vib_v) dc4.i(vic_v)/dc4.i(vib_v) dc5.i(vic_v)/dc5.i(vib_v) dc6.i(vic_v)/dc6.i(vib_v) dc7.i(vic_v)/dc7.i(vib_v) dc8.i(vic_v)/dc8.i(vib_v) dc9.i(vic_v)/dc9.i(vib_v)
 1.00000000e-01  2.01827450e-13  2.02655827e-13  2.03457372e-13  2.04262671e-13  2.05042140e-13  2.05815887e-13  2.06579622e-13  2.07352447e-13  2.08085598e-13  1.02669068e-13  1.03858203e-13  1.05012451e-13  1.06145820e-13  1.07263722e-13  1.08364456e-13  1.09453913e-13  1.10535709e-13  1.11611279e-13  5.08697244e-01  5.12485650e-01  5.16139818e-01  5.19653538e-01  5.23130136e-01  5.26511618e-01  5.29838870e-01  5.33081285e-01  5.36371953e-01 
 1.50000000e-01  3.03891916e-13  3.05667048e-13  3.07367755e-13  3.09080665e-13  3.10744663e-13  3.12405681e-13  3.14030595e-13  3.15656917e-13  3.17220026e-13  1.55234692e-13  1.57419938e-13  1.59508556e-13  1.61534482e-13  1.63511092e-13  1.65444737e-13  1.67344170e-13  1.69219361e-13  1.71071307e-13  5.10822051e-01  5.15004607e-01  5.18950194e-01  5.22628880e-01  5.26191151e-01  5.29583000e-01  5.32891293e-01  5.36086337e-01  5.39282809e-01 
 2.00000000e-01  4.14537601e-13  4.21131060e-13  4.27580272e-13  4.33937914e-13  4.40129808e-13  4.46310787e-13  4.52375758e-13  4.58411560e-13  4.64396191e-13  2.58463389e-13  2.81038511e-13  3.02175921e-13  3.22311180e-13  3.41678222e-13  3.60427871e-13  3.78666648e-13  3.96477296e-13  4.13914399e-13  6.23498059e-01  6.67342159e-01  7.06711559e-01  7.42758744e-01  7.76312387e-01  8.07571497e-01  8.37062203e-01  8.64893756e-01  8.91295853e-01 
 2.50000000e-01  5.39117468e-13  5.56916840e-13  5.74251681e-13  5.91283876e-13  6.08050015e-13  6.24639786e-13  6.40963730e-13  6.57196438e-13  6.73300956e-13  6.30042331e-13  7.75833926e-13  9.12079717e-13  1.04163823e-12  1.16611858e-12  1.28651022e-12  1.40351978e-12  1.51764771e-12  1.62928552e-12  1.16865501e+00  1.39308757e+00  1.58829264e+00  1.76165505e+00  1.91780043e+00  2.05960339e+00  2.18970235e+00  2.30927562e+00  2.41984734e+00 
 3.00000000e-01  7.05881964e-13  7.54069630e-13  8.01039176e-13  8.47135097e-13  8.92525797e-13  9.37358662e-13  9.81738442e-13  1.02566836e-12  1.06919503e-12  2.81562395e-12  3.77969340e-12  4.68034151e-12  5.53660608e-12  6.35908126e-12  7.15446820e-12  7.92739358e-12  8.68121089e-12  9.41842919e-12  3.98880280e+00  5.01239308e+00  5.84283722e+00  6.53568257e+00  7.12481508e+00  7.63258344e+00  8.07485297e+00  8.46395504e+00  8.80889726e+00 
 3.50000000e-01  9.95273014e-13  1.12962847e-12  1.26060545e-12  1.38915297e-12  1.51572315e-12  1.64076508e-12  1.76445852e-12  1.88695734e-12  2.00841597e-12  1.70478143e-11  2.34459531e-11  2.94229713e-11  3.51051742e-11  4.05629801e-11  4.58409694e-11  5.09697540e-11  5.59715721e-11  6.08632361e-11  1.71287818e+01  2.07554553e+01  2.33403492e+01  2.52709204e+01  2.67614703e+01  2.79387768e+01  2.88869097e+01  2.96623410e+01  3.03040988e+01 
 4.00000000e-01  1.68136578e-12  2.08247745e-12  2.47343064e-12  2.85714785e-12  3.23501081e-12  3.60820416e-12  3.97735494e-12  4.34314023e-12  4.70577293e-12  1.11277640e-10  1.53761905e-10  1.93449579e-10  2.31179472e-10  2.67419172e-10  3.02464788e-10  3.36519617e-10  3.69731246e-10  4.02211367e-10  6.61828863e+01  7.38360481e+01  7.82110385e+01  8.09126736e+01  8.26640736e+01  8.38269606e+01  8.46088977e+01  8.51299352e+01  8.54719029e+01 
 4.50000000e-01  3.88537783e-12  5.24395976e-12  6.56825482e-12  7.86775933e-12  9.14779178e-12  1.04118276e-11  1.16622584e-11  1.29011435e-11  1.41295619e-11  7.36722821e-10  1.01883471e-09  1.28237592e-09  1.53291652e-09  1.77356147e-09  2.00627717e-09  2.23241359e-09  2.45295078e-09  2.66863030e-09  1.89614203e+02  1.94287286e+02  1.95238455e+02  1.94835207e+02  1.93878644e+02  1.92692123e+02  1.91422066e+02  1.90134369e+02  1.88868580e+02 
 5.00000000e-01  1.31105172e-11  1.86216948e-11  2.39940313e-11  2.92655593e-11  3.44580202e-11  3.95856836e-11  4.46585179e-11  4.96837655e-11  5.46673566e-11  4.88942290e-09  6.76267392e-09  8.51261377e-09  1.01762283e-08  1.17741346e-08  1.33193899e-08  1.48209580e-08  1.62853468e-08  1.77174802e-08  3.72938978e+02  3.63161033e+02  3.54780473e+02  3.47720272e+02  3.41695040e+02  3.36469873e+02  3.31873038e+02  3.27780043e+02  3.24096156e+02 
 5.50000000e-01  6.01341493e-11  8.69990163e-11  1.13187416e-10  1.38884070e-10  1.64195439e-10  1.89190916e-10  2.13919049e-10  2.38415794e-10  2.62708774e-10  3.24605649e-08  4.48980936e-08  5.65169042e-08  6.75625610e-08  7.81719506e-08  8.84317653e-08  9.84015195e-08  1.08124422e-07  1.17633165e-07  5.39802514e+02  5.16075877e+02  4.99321447e+02  4.86467319e+02  4.76090876e+02  4.67420778e+02  4.59994190e+02  4.53511993e+02  4.47770218e+02 
 6.00000000e-01  3.29921882e-10  4.79518122e-10  6.25348243e-10  7.68440208e-10  9.09387547e-10  1.04857568e-09  1.18627569e-09  1.32268739e-09  1.45796491e-09  2.15471702e-07  2.98035905e-07  3.75165723e-07  4.48491086e-07  5.18920591e-07  5.87029669e-07  6.53213358e-07  7.17758465e-07  7.80881995e-07  6.53099154e+02  6.21532100e+02  5.99930882e+02  5.83638234e+02  5.70626454e+02  5.59835288e+02  5.50642118e+02  5.42651628e+02  5.35597247e+02 
 6.50000000e-01  1.97162497e-09  2.86843898e-09  3.74270398e-09  4.60057404e-09  5.44560043e-09  6.28009283e-09  7.10567180e-09  7.92353577e-09  8.73460641e-09  1.42896801e-06  1.97666449e-06  2.48833440e-06  2.97478120e-06  3.44202772e-06  3.89388855e-06  4.33298255e-06  4.76121118e-06  5.18001313e-06  7.24766643e+02  6.89108086e+02  6.64849375e+02  6.46610873e+02  6.32074968e+02  6.20036782e+02  6.09792103e+02  6.00894767e+02  5.93044825e+02 
 7.00000000e-01  1.21890212e-08  1.77424788e-08  2.31574970e-08  2.84717878e-08  3.37071294e-08  3.88776939e-08  4.39934296e-08  4.90616955e-08  5.40881519e-08  9.42497262e-06  1.30436376e-05  1.64252656e-05  1.96408540e-05  2.27300038e-05  2.57178063e-05  2.86214930e-05  3.14535779e-05  3.42235318e-05  7.73234574e+02  7.35164332e+02  7.09285016e+02  6.89835640e+02  6.74338166e+02  6.61505448e+02  6.50585628e+02  6.41102547e+02  6.32736201e+02 
 7.50000000e-01  7.47251143e-08  1.09007624e-07  1.42482281e-07  1.75366495e-07  2.07786417e-07  2.39824427e-07  2.71538509e-07  3.02971657e-07  3.34157000e-07  6.01094766e-05  8.34324778e-05  1.05268095e-04  1.26058516e-04  1.46051199e-04  1.65403313e-04  1.84222998e-04  2.02588912e-04  2.20560664e-04  8.04407958e+02  7.65382045e+02  7.38815340e+02  7.18828961e+02  7.02890982e+02  6.89685011e+02  6.78441516e+02  6.68672820e+02  6.60051005e+02 
 8.00000000e-01  4.08790655e-07  6.01730091e-07  7.91350488e-07  9.78492065e-07  1.16365332e-06  1.34716525e-06  1.52926392e-06  1.71012629e-06  1.88988999e-06  3.25389840e-04  4.57157515e-04  5.81595045e-04  7.00810372e-04  8.15999367e-04  9.27929376e-04  1.03713272e-03  1.14399923e-03  1.24882606e-03  7.95981599e+02  7.59738497e+02  7.34939895e+02  7.16214671e+02  7.01239235e+02  6.88801446e+02  6.78190796e+02  6.68955991e+02  6.60792988e+02 
 8.50000000e-01  2.00100957e-06  2.97179999e-06  3.93147820e-06  4.88234543e-06  5.82581250e-06  6.76265663e-06  7.69331704e-06  8.62146250e-06  9.54370077e-06  1.06289009e-03  1.53139389e-03  1.98358155e-03  2.42387109e-03  2.85483024e-03  3.27817648e-03  3.69514474e-03  4.10596808e-03  4.51211068e-03  5.31176916e+02  5.15308531e+02  5.04538357e+02  4.96456289e+02  4.90031259e+02  4.84746847e+02  4.80305792e+02  4.76249602e+02  4.72784174e+02 
 9.00000000e-01  1.37432026e-05  2.08441197e-05  2.79981295e-05  3.51890993e-05  4.24079238e-05  4.96487950e-05  5.69077104e-05  6.41818122e-05  7.14688404e-05  1.64104877e-03  2.38197734e-03  3.10215843e-03  3.80718780e-03  4.50030883e-03  5.18363811e-03  5.85866464e-03  6.52649088e-03  7.18796820e-03  1.19408031e+02  1.14275747e+02  1.10798775e+02  1.08192249e+02  1.06119527e+02  1.04406121e+02  1.02950278e+02  1.01687544e+02  1.00574854e+02 
 9.50000000e-01  6.48449540e-05  9.94707086e-05  1.34663941e-04  1.70263849e-04  2.06177482e-04  2.42344602e-04  2.78723201e-04  3.15279606e-04  3.51992994e-04  2.33688504e-03  3.39608466e-03  4.42638715e-03  5.43551974e-03  6.42797553e-03  7.40669291e-03  8.37374221e-03  9.33067288e-03  1.02786572e-02  3.60380400e+01  3.41415549e+01  3.28698767e+01  3.19240977e+01  3.11769038e+01  3.05626486e+01  3.00432191e+01  2.95949142e+01  2.92013118e+01 
 1.00000000e+00  2.64388159e-04  4.07944339e-04  5.54119673e-04  7.02079138e-04  8.51352639e-04  1.00164196e-03  1.15274297e-03  1.30450830e-03  1.45682733e-03  2.95952899e-03  4.28570859e-03  5.57167032e-03  6.82827776e-03  8.06182985e-03  9.27643722e-03  1.04749912e-02  1.16596344e-02  1.28320167e-02  1.11938787e+01  1.05056210e+01  1.00549946e+01  9.72579499e+00  9.46943661e+00  9.26123065e+00  9.08701377e+00  8.93795343e+00  8.80819328e+00 
 1.05000000e+00  8.85898218e-04  1.35080494e-03  1.81809094e-03  2.28632099e-03  2.75479546e-03  3.22312861e-03  3.69109178e-03  4.15854325e-03  4.62539294e-03  3.26307147e-03  4.70729865e-03  6.10417474e-03  7.46674838e-03  8.80252792e-03  1.01163854e-02  1.14117323e-02  1.26910870e-02  1.39563827e-02  3.68334805e+00  3.48481006e+00  3.35746393e+00  3.26583555e+00  3.19534719e+00  3.13868500e+00  3.09169562e+00  3.05181075e+00  3.01733991e+00 
 1.10000000e+00  2.07220785e-03  3.10841299e-03  4.13608470e-03  5.15578612e-03  6.16816749e-03  7.17382058e-03  8.17325987e-03  9.16692929e-03  1.01552131e-02  3.35985646e-03  4.84111299e-03  6.27289696e-03  7.66893248e-03  9.03709512e-03  1.03824851e-02  1.17086681e-02  1.30182732e-02  1.43133164e-02  1.62138970e+00  1.55742271e+00  1.51662681e+00  1.48744193e+00  1.46511831e+00  1.44727415e+00  1.43255792e+00  1.42013458e+00  1.40945505e+00 
 1.15000000e+00  3.65188017e-03  5.42329934e-03  7.16616495e-03  8.88578841e-03  1.05847453e-02  1.22670258e-02  1.39338090e-02  1.55865921e-02  1.72265938e-02  3.39345722e-03  4.88812334e-03  6.33273547e-03  7.74117935e-03  9.12151638e-03  1.04787656e-02  1.18166068e-02  1.31377014e-02  1.44440895e-02  9.29235644e-01  9.01319111e-01  8.83699372e-01  8.71186550e-01  8.61760590e-01  8.54222187e-01  8.48052880e-01  8.42884790e-01  8.38476238e-01 
 1.20000000e+00  5.45325170e-03  8.05103925e-03  1.05962485e-02  1.30995485e-02  1.55677945e-02  1.80058179e-02  2.04170880e-02  2.28046687e-02  2.51706810e-02  3.40838629e-03  4.90933245e-03  6.35995951e-03  7.77426039e-03  9.16025864e-03  1.05231464e-02  1.18665601e-02  1.31931567e-02  1.45049932e-02  6.25019067e-01  6.09776241e-01  6.00208605e-01  5.93475448e-01  5.88410813e-01  5.84430347e-01  5.81207275e-01  5.78528759e-01  5.76265427e-01 
 1.25000000e+00  7.38423684e-03  1.08636585e-02  1.42636721e-02  1.76012563e-02  2.08871425e-02  2.41287848e-02  2.73316871e-02  3.05000922e-02  3.36373777e-02  3.41639276e-03  4.92077702e-03  6.37473057e-03  7.79228469e-03  9.18148192e-03  1.05475262e-02  1.18940533e-02  1.32237424e-02  1.45386470e-02  4.62660236e-01  4.52957632e-01  4.46920717e-01  4.42711846e-01  4.39575777e-01  4.37134580e-01  4.35174502e-01  4.33564015e-01  4.32217016e-01 
 1.30000000e+00  9.39755369e-03  1.37941432e-02  1.80829409e-02  2.22876925e-02  2.64232394e-02  3.04998115e-02  3.45249193e-02  3.85043259e-02  4.24426022e-02  3.42126023e-03  4.92776882e-03  6.38378803e-03  7.80336823e-03  9.19456234e-03  1.05625808e-02  1.19110636e-02  1.32426931e-02  1.45595252e-02  3.64058599e-01  3.57236309e-01  3.53028197e-01  3.50120059e-01  3.47972563e-01  3.46316263e-01  3.44999028e-01  3.43927412e-01  3.43040351e-01 
 1.35000000e+00  1.14669026e-02  1.68051059e-02  2.20061787e-02  2.71008871e-02  3.21083304e-02  3.70416116e-02  4.19103159e-02  4.67217782e-02  5.14818019e-02  3.42448912e-03  4.93242437e-03  6.38983475e-03  7.81078228e-03  9.20332621e-03  1.05726809e-02  1.19224890e-02  1.32554347e-02  1.45735753e-02  2.98641161e-01  2.93507485e-01  2.90365485e-01  2.88211314e-01  2.86633596e-01  2.85427130e-01  2.84476237e-01  2.83709980e-01  2.83082075e-01 
 1.40000000e+00  1.35764988e-02  1.98740546e-02  2.60044932e-02  3.20057713e-02  3.79013459e-02  4.37072584e-02  4.94352157e-02  5.50941587e-02  6.06911504e-02  3.42677087e-03  4.93572340e-03  6.39412782e-03  7.81605385e-03  9.20956491e-03  1.05798779e-02  1.19306373e-02  1.32645285e-02  1.45836096e-02  2.52404609e-01  2.48350098e-01  2.45885501e-01  2.44207639e-01  2.42987807e-01  2.42062263e-01  2.41338833e-01  2.40761068e-01  2.40292193e-01 
 1.45000000e+00  1.57162674e-02  2.29865816e-02  3.00593295e-02  3.69797787e-02  4.37758145e-02  5.04664641e-02  5.70655887e-02  6.35827122e-02  7.00281748e-02  3.42846141e-03  4.93817284e-03  6.39732000e-03  7.81997801e-03  9.21421321e-03  1.05852443e-02  1.19367169e-02  1.32713367e-02  1.45911257e-02  2.18147307e-01  2.14828499e-01  2.12823111e-01  2.11466328e-01  2.10486391e-01  2.09748087e-01  2.09175393e-01  2.08725553e-01  2.08360789e-01 
 1.50000000e+00  1.78794308e-02  2.61329663e-02  3.41581426e-02  4.20076273e-02  4.97137869e-02  5.72986681e-02  6.47783117e-02  7.21649384e-02  7.94681830e-02  3.42976059e-03  4.94005840e-03  6.39978020e-03  7.82300504e-03  9.21780140e-03  1.05893893e-02  1.19414153e-02  1.32765663e-02  1.45969015e-02  1.91827169e-01  1.89035502e-01  1.87357383e-01  1.86228205e-01  1.85417406e-01  1.84810392e-01  1.84342799e-01  1.83975302e-01  1.83682337e-01 
 1.55000000e+00  2.00612320e-02  2.93063692e-02  3.82920908e-02  4.70785325e-02  5.57025815e-02  6.41893312e-02  7.25570202e-02  8.08195326e-02  8.89878070e-02  3.43078844e-03  4.94155223e-03  6.40173114e-03  7.82540722e-03  9.22065058e-03  1.05926822e-02  1.19451494e-02  1.32807395e-02  1.46015120e-02  1.71015840e-01  1.68617006e-01  1.67181551e-01  1.66220288e-01  1.65533631e-01  1.65022474e-01  1.64631201e-01  1.64325863e-01  1.64084412e-01 
 1.60000000e+00  2.22582132e-02  3.25018091e-02  4.24547258e-02  5.21846200e-02  6.17329311e-02  7.11278200e-02  8.03897380e-02  8.95342436e-02  9.85735879e-02  3.43162103e-03  4.94276368e-03  6.40331457e-03  7.82735809e-03  9.22296560e-03  1.05953589e-02  1.19481858e-02  1.32841339e-02  1.46052631e-02  1.54173248e-01  1.52076571e-01  1.50826897e-01  1.49993582e-01  1.49401064e-01  1.48962233e-01  1.48628246e-01  1.48369309e-01  1.48166091e-01 
