 v-sweep         (dc1.i(vib_l))  (dc2.i(vib_l))  (dc3.i(vib_l))  (dc4.i(vib_l))  (dc1.i(vic_l))  (dc2.i(vic_l))  (dc3.i(vic_l))  (dc4.i(vic_l))  dc1.i(vic_l)/dc1.i(vib_l) dc2.i(vic_l)/dc2.i(vib_l) dc3.i(vic_l)/dc3.i(vib_l) dc4.i(vic_l)/dc4.i(vib_l)
 1.00000000e-01  2.00398708e-13  2.00578074e-13  2.00735235e-13  2.00887024e-13  1.00131098e-13  1.00197347e-13  1.00254897e-13  1.00323367e-13  4.99659399e-01  4.99542872e-01  4.99438459e-01  4.99401925e-01 
 1.50000000e-01  3.00896244e-13  3.01274736e-13  3.01628703e-13  3.01953035e-13  1.50217887e-13  1.50320454e-13  1.50408535e-13  1.50505179e-13  4.99234835e-01  4.98948090e-01  4.98654582e-01  4.98439033e-01 
 2.00000000e-01  4.03835108e-13  4.05407104e-13  4.06893602e-13  4.08363811e-13  2.02551581e-13  2.03619971e-13  2.04632462e-13  2.05600156e-13  5.01570014e-01  5.02260491e-01  5.02913934e-01  5.03473007e-01 
 2.50000000e-01  5.11196525e-13  5.15829940e-13  5.20203478e-13  5.24421331e-13  2.70428718e-13  2.78844353e-13  2.86857198e-13  2.94539815e-13  5.29011260e-01  5.40574192e-01  5.51432680e-01  5.61647282e-01 
 3.00000000e-01  6.32694168e-13  6.46176537e-13  6.58940007e-13  6.71227108e-13  4.68623064e-13  5.38016179e-13  6.03973364e-13  6.67446066e-13  7.40678653e-01  8.32614848e-01  9.16583237e-01  9.94366971e-01 
 3.50000000e-01  7.96055587e-13  8.35628908e-13  8.73223914e-13  9.09351838e-13  1.74705440e-12  2.32192245e-12  2.86822132e-12  3.39415341e-12  2.19463870e+00  2.77865262e+00  3.28463441e+00  3.73249744e+00 
 4.00000000e-01  1.08884011e-12  1.20773101e-12  1.32069231e-12  1.42942876e-12  1.19801052e-11  1.67452030e-11  2.12731899e-11  2.56325908e-11  1.10026304e+01  1.38650104e+01  1.61076049e+01  1.79320520e+01 
 4.50000000e-01  1.81995548e-12  2.19852348e-12  2.55822117e-12  2.90447795e-12  9.64411473e-11  1.35940479e-10  1.73474179e-10  2.09610778e-10  5.29909375e+01  6.18326254e+01  6.78104697e+01  7.21681424e+01 
 5.00000000e-01  4.31766704e-12  5.68289466e-12  6.98016338e-12  8.22906216e-12  7.96184923e-10  1.12360071e-09  1.43472289e-09  1.73426470e-09  1.84401649e+02  1.97716266e+02  2.05542880e+02  2.10748766e+02 
 5.50000000e-01  1.58095012e-11  2.18622987e-11  2.76139320e-11  3.31514116e-11  6.59582946e-09  9.30971755e-09  1.18885507e-08  1.43713970e-08  4.17206677e+02  4.25834340e+02  4.30527266e+02  4.33507845e+02 
 6.00000000e-01  8.35582957e-11  1.17447968e-10  1.49651174e-10  1.80655677e-10  5.46635665e-08  7.71568934e-08  9.85308712e-08  1.19109300e-07  6.54196762e+02  6.56945323e+02  6.58403595e+02  6.59316674e+02 
 6.50000000e-01  5.49435708e-10  7.74994398e-10  9.89329472e-10  1.19568764e-09  4.52956047e-07  6.39349486e-07  8.16468494e-07  9.86995857e-07  8.24402272e+02  8.24973042e+02  8.25274609e+02  8.25462955e+02 
 7.00000000e-01  3.99577819e-09  5.63983752e-09  7.20215870e-09  8.70638182e-09  3.74836768e-06  5.29127026e-06  6.75748266e-06  8.16918361e-06  9.38082021e+02  9.38195514e+02  9.38257950e+02  9.38298340e+02 
 7.50000000e-01  3.00479639e-08  4.24375608e-08  5.42154451e-08  6.55582596e-08  3.07070372e-05  4.33752820e-05  5.54192371e-05  6.70191014e-05  1.02193404e+03  1.02209649e+03  1.02220386e+03  1.02228311e+03 
 8.00000000e-01  2.16124052e-07  3.06379448e-07  3.92404140e-07  4.75406568e-07  2.33540144e-04  3.31393114e-04  4.24723655e-04  5.14819676e-04  1.08058378e+03  1.08164277e+03  1.08236283e+03  1.08290400e+03 
 8.50000000e-01  1.18104615e-06  1.69547529e-06  2.19069271e-06  2.67199533e-06  1.26255194e-03  1.81902799e-03  2.35622575e-03  2.87939554e-03  1.06901152e+03  1.07287201e+03  1.07556196e+03  1.07761997e+03 
 9.00000000e-01  3.90967920e-06  5.69031351e-06  7.42502348e-06  9.12609410e-06  3.76358408e-03  5.50943018e-03  7.21837769e-03  8.90010214e-03  9.62632455e+02  9.68212063e+02  9.72169005e+02  9.75236727e+02 
 9.50000000e-01  8.88011023e-06  1.30293044e-05  1.71004029e-05  2.11140132e-05  7.36805189e-03  1.08795268e-02  1.43433010e-02  1.77717007e-02  8.29725273e+02  8.35004420e+02  8.38769773e+02  8.41701695e+02 
 1.00000000e+00  1.62800423e-05  2.39975571e-05  3.16004906e-05  3.91188476e-05  1.15979390e-02  1.72026029e-02  2.27531189e-02  2.82633854e-02  7.12402266e+02  7.16848086e+02  7.20024232e+02  7.22500460e+02 
 1.05000000e+00  2.62380269e-05  3.87889781e-05  5.11848456e-05  6.34660331e-05  1.62022309e-02  2.40945096e-02  3.19282901e-02  3.97185185e-02  6.17509501e+02  6.21168973e+02  6.23784046e+02  6.25823241e+02 
 1.10000000e+00  3.88467796e-05  5.75445184e-05  7.60440638e-05  9.43980518e-05  2.10516344e-02  3.13578057e-02  4.16021435e-02  5.18003258e-02  5.41914531e+02  5.44931240e+02  5.47079436e+02  5.48743589e+02 
 1.15000000e+00  5.44821787e-05  8.30447423e-05  1.16536935e-04  1.56076576e-04  2.60602841e-02  3.87719976e-02  5.12154571e-02  6.33865841e-02  4.78326762e+02  4.66880823e+02  4.39478325e+02  4.06124901e+02 
 1.20000000e+00  1.19335130e-04  2.21715351e-04  3.47005852e-04  4.92606262e-04  2.99967848e-02  4.39216886e-02  5.74853027e-02  7.07744979e-02  2.51365920e+02  1.98099448e+02  1.65660903e+02  1.43673565e+02 
 1.25000000e+00  3.32782351e-04  6.30328035e-04  9.93252634e-04  1.41292610e-03  3.30647112e-02  4.82624297e-02  6.30103713e-02  7.74051489e-02  9.93583677e+01  7.65671634e+01  6.34384135e+01  5.47835793e+01 
 1.30000000e+00  8.25017078e-04  1.56505396e-03  2.45444204e-03  3.46366072e-03  3.59157401e-02  5.21365569e-02  6.77440920e-02  8.28760311e-02  4.35333292e+01  3.33129452e+01  2.76006077e+01  2.39272948e+01 
 1.35000000e+00  1.82211587e-03  3.39118768e-03  5.19620902e-03  7.16658291e-03  3.82344992e-02  5.50288586e-02  7.10559222e-02  8.65178278e-02  2.09835719e+01  1.62270166e+01  1.36745697e+01  1.20723961e+01 
 1.40000000e+00  3.52565253e-03  6.27866610e-03  9.28478132e-03  1.24496454e-02  3.97864485e-02  5.68057275e-02  7.29954194e-02  8.85920698e-02  1.12848467e+01  9.04741972e+00  7.86183507e+00  7.11603157e+00 
 1.45000000e+00  5.89905189e-03  1.00194933e-02  1.43572322e-02  1.88200230e-02  4.06889232e-02  5.78057953e-02  7.40798150e-02  8.97543872e-02  6.89753607e+00  5.76933321e+00  5.15975600e+00  4.76909020e+00 
 1.50000000e+00  8.73990082e-03  1.43084789e-02  2.00408695e-02  2.58560879e-02  4.12044120e-02  5.83846590e-02  7.47176858e-02  9.04480388e-02  4.71451711e+00  4.08042388e+00  3.72826566e+00  3.49813318e+00 
 1.55000000e+00  1.18713458e-02  1.89343728e-02  2.61015712e-02  3.33057298e-02  4.15157566e-02  5.87441130e-02  7.51218108e-02  9.08942199e-02  3.49713985e+00  3.10251170e+00  2.87805704e+00  2.72908657e+00 
 1.60000000e+00  1.51809743e-02  2.37709063e-02  3.24019109e-02  4.10216834e-02  4.17195051e-02  5.89853653e-02  7.53976165e-02  9.12024585e-02  2.74814410e+00  2.48141003e+00  2.32694969e+00  2.22327440e+00 
