 v-sweep         dc1.i(vic)/dc1.i(vib) dc2.i(vic)/dc2.i(vib) dc3.i(vic)/dc3.i(vib) dc4.i(vic)/dc4.i(vib) dc5.i(vic)/dc5.i(vib) dc6.i(vic)/dc6.i(vib) dc7.i(vic)/dc7.i(vib) dc8.i(vic)/dc8.i(vib) dc9.i(vic)/dc9.i(vib) dc10.i(vic)/dc10.i(vib) dc1.i(vic_l)/dc1.i(vib_l) dc2.i(vic_l)/dc2.i(vib_l) dc3.i(vic_l)/dc3.i(vib_l) dc4.i(vic_l)/dc4.i(vib_l) dc5.i(vic_l)/dc5.i(vib_l) dc6.i(vic_l)/dc6.i(vib_l) dc7.i(vic_l)/dc7.i(vib_l) dc8.i(vic_l)/dc8.i(vib_l) dc9.i(vic_l)/dc9.i(vib_l) dc10.i(vic_l)/dc10.i(vib_l) dc1.i(vic_v)/dc1.i(vib_v) dc2.i(vic_v)/dc2.i(vib_v) dc3.i(vic_v)/dc3.i(vib_v) dc4.i(vic_v)/dc4.i(vib_v) dc5.i(vic_v)/dc5.i(vib_v) dc6.i(vic_v)/dc6.i(vib_v) dc7.i(vic_v)/dc7.i(vib_v) dc8.i(vic_v)/dc8.i(vib_v) dc9.i(vic_v)/dc9.i(vib_v) dc10.i(vic_v)/dc10.i(vib_v)
 1.00000000e-01  5.10552378e-01  5.19631984e-01  5.28350671e-01  5.36835298e-01  5.45128444e-01  5.53245518e-01  5.61206171e-01  5.69196012e-01  5.77022510e-01  5.84700505e-01  5.09195102e-01  5.16875677e-01  5.24078534e-01  5.30951953e-01  5.37680980e-01  5.44050446e-01  5.50356961e-01  5.56527615e-01  5.62422720e-01  5.68164831e-01  5.10608457e-01  5.19653538e-01  5.28182392e-01  5.36300574e-01  5.44195941e-01  5.51816795e-01  5.59241376e-01  5.66493467e-01  5.73432953e-01  5.80166069e-01 
 1.50000000e-01  5.09725065e-01  5.18391114e-01  5.26782701e-01  5.34965052e-01  5.42951737e-01  5.50834307e-01  5.58558429e-01  5.66277455e-01  5.73856704e-01  5.81287354e-01  5.08752222e-01  5.16354174e-01  5.23562515e-01  5.30456552e-01  5.37178408e-01  5.43533619e-01  5.49788934e-01  5.55861055e-01  5.61702610e-01  5.67386147e-01  5.11952658e-01  5.22628880e-01  5.32759545e-01  5.42504047e-01  5.51895340e-01  5.60882909e-01  5.69586225e-01  5.78108209e-01  5.86265769e-01  5.94147146e-01 
 2.00000000e-01  5.55997075e-01  6.09983308e-01  6.62586568e-01  7.13896956e-01  7.63996634e-01  8.12939648e-01  8.60709576e-01  9.07509815e-01  9.53279409e-01  9.98048305e-01  5.84197892e-01  6.62174120e-01  7.35031167e-01  8.03291884e-01  8.67476809e-01  9.27718305e-01  9.84609107e-01  1.03826073e+00  1.08916568e+00  1.13748650e+00  6.26667635e-01  7.42758744e-01  8.50022755e-01  9.49350717e-01  1.04175928e+00  1.12781468e+00  1.20834002e+00  1.28339751e+00  1.35414947e+00  1.42051684e+00 
 2.50000000e-01  7.88643453e-01  1.06260113e+00  1.32335199e+00  1.57188972e+00  1.80900853e+00  2.03548911e+00  2.25211286e+00  2.45946531e+00  2.65814303e+00  2.84868296e+00  9.72952513e-01  1.38308662e+00  1.74240952e+00  2.05980711e+00  2.34243034e+00  2.59527044e+00  2.82313180e+00  3.02946292e+00  3.21729979e+00  3.38879045e+00  1.18385878e+00  1.76165505e+00  2.25649946e+00  2.68530755e+00  3.06008436e+00  3.39071916e+00  3.68463362e+00  3.94734201e+00  4.18408749e+00  4.39737804e+00 
 3.00000000e-01  2.06295155e+00  3.46036555e+00  4.71752835e+00  5.85446289e+00  6.88761204e+00  7.83085321e+00  8.69529717e+00  9.49016710e+00  1.02241071e+01  1.09028497e+01  3.05501620e+00  4.95931319e+00  6.43377856e+00  7.60884860e+00  8.56759882e+00  9.36481185e+00  1.00380589e+01  1.06136223e+01  1.11113486e+01  1.15477550e+01  4.03344116e+00  6.53568257e+00  8.40116248e+00  9.84490806e+00  1.09958041e+01  1.19339501e+01  1.27144906e+01  1.33737803e+01  1.39376972e+01  1.44259684e+01 
 3.50000000e-01  8.76056458e+00  1.51545576e+01  2.02505903e+01  2.44075249e+01  2.78627294e+01  3.07804107e+01  3.32765594e+01  3.54369977e+01  3.73246710e+01  3.89886642e+01  1.30898485e+01  2.00399465e+01  2.44472959e+01  2.74910197e+01  2.97183319e+01  3.14200217e+01  3.27624205e+01  3.38472805e+01  3.47445902e+01  3.54967737e+01  1.69712185e+01  2.52709204e+01  3.02712873e+01  3.36147176e+01  3.60064876e+01  3.78019744e+01  3.91997346e+01  4.03201527e+01  4.12363371e+01  4.20017979e+01 
 4.00000000e-01  3.96909355e+01  6.13761438e+01  7.51432797e+01  8.46590366e+01  9.16303969e+01  9.69572399e+01  1.01159832e+02  1.04559075e+02  1.07367572e+02  1.09725555e+02  5.21752503e+01  6.88576075e+01  7.71000762e+01  8.20150263e+01  8.52777373e+01  8.76027774e+01  8.93433112e+01  9.06940553e+01  9.17734857e+01  9.26564835e+01  6.33229638e+01  8.09126736e+01  8.91915994e+01  9.40038564e+01  9.71497976e+01  9.93693442e+01  1.01017163e+02  1.02290735e+02  1.03303884e+02  1.04125711e+02 
 4.50000000e-01  1.40618075e+02  1.79268740e+02  1.97370134e+02  2.07868102e+02  2.14723129e+02  2.19550595e+02  2.23133260e+02  2.25898936e+02  2.28097208e+02  2.29888566e+02  1.56317627e+02  1.77876792e+02  1.86453634e+02  1.91060550e+02  1.93936021e+02  1.95901576e+02  1.97330985e+02  1.98415710e+02  1.99267351e+02  1.99954716e+02  1.74886216e+02  1.94835207e+02  2.02539043e+02  2.06624579e+02  2.09155094e+02  2.10879398e+02  2.12126726e+02  2.13072436e+02  2.13813677e+02  2.14410516e+02 
 5.00000000e-01  3.14790272e+02  3.42635403e+02  3.53047127e+02  3.58494206e+02  3.61844069e+02  3.64111869e+02  3.65749570e+02  3.66987926e+02  3.67956573e+02  3.68734994e+02  3.21393080e+02  3.35077048e+02  3.39901348e+02  3.42365450e+02  3.43861747e+02  3.44866878e+02  3.45588270e+02  3.46130756e+02  3.46554500e+02  3.46893540e+02  3.36247758e+02  3.47720272e+02  3.51720986e+02  3.53755501e+02  3.54988089e+02  3.55814151e+02  3.56407105e+02  3.56852663e+02  3.57200254e+02  3.57478452e+02 
 5.50000000e-01  4.71745819e+02  4.81502329e+02  4.84844790e+02  4.86533578e+02  4.87552373e+02  4.88234156e+02  4.88722222e+02  4.89088779e+02  4.89374448e+02  4.89603161e+02  4.80141051e+02  4.84934325e+02  4.86553406e+02  4.87367040e+02  4.87856335e+02  4.88183309e+02  4.88417159e+02  4.88592529e+02  4.88728873e+02  4.88838334e+02  4.82648598e+02  4.86467319e+02  4.87753831e+02  4.88399545e+02  4.88787801e+02  4.89046956e+02  4.89232205e+02  4.89371173e+02  4.89479590e+02  4.89566074e+02 
 6.00000000e-01  5.78785659e+02  5.81168938e+02  5.81967746e+02  5.82367945e+02  5.82608324e+02  5.82768717e+02  5.82883371e+02  5.82969359e+02  5.83036233e+02  5.83089733e+02  5.92219482e+02  5.93381303e+02  5.93769506e+02  5.93963765e+02  5.94080316e+02  5.94158064e+02  5.94213582e+02  5.94255203e+02  5.94287560e+02  5.94313472e+02  5.82729232e+02  5.83638207e+02  5.83941708e+02  5.84093571e+02  5.84184683e+02  5.84245409e+02  5.84288797e+02  5.84321291e+02  5.84346622e+02  5.84366823e+02 
 6.50000000e-01  6.56676715e+02  6.57177893e+02  6.57345125e+02  6.57428770e+02  6.57478965e+02  6.57512431e+02  6.57536340e+02  6.57554278e+02  6.57568221e+02  6.57579379e+02  6.65674331e+02  6.65906896e+02  6.65984059e+02  6.66022438e+02  6.66045344e+02  6.66060531e+02  6.66071307e+02  6.66079341e+02  6.66085549e+02  6.66090499e+02  6.46429715e+02  6.46610873e+02  6.46670852e+02  6.46700622e+02  6.46718354e+02  6.46730078e+02  6.46738390e+02  6.46744569e+02  6.46749328e+02  6.46753116e+02 
 7.00000000e-01  7.22170495e+02  7.22269589e+02  7.22302620e+02  7.22319134e+02  7.22329042e+02  7.22335645e+02  7.22340361e+02  7.22343898e+02  7.22346648e+02  7.22348847e+02  7.17980965e+02  7.18017103e+02  7.18027067e+02  7.18030977e+02  7.18032663e+02  7.18033334e+02  7.18033488e+02  7.18033350e+02  7.18033046e+02  7.18032641e+02  6.89808682e+02  6.89835640e+02  6.89842573e+02  6.89844982e+02  6.89845776e+02  6.89845862e+02  6.89845599e+02  6.89845154e+02  6.89844613e+02  6.89844023e+02 
 7.50000000e-01  7.78950716e+02  7.78969879e+02  7.78976240e+02  7.78979406e+02  7.78981298e+02  7.78982554e+02  7.78983447e+02  7.78984113e+02  7.78984630e+02  7.78985041e+02  7.57702496e+02  7.57676002e+02  7.57657214e+02  7.57642710e+02  7.57630859e+02  7.57620811e+02  7.57612069e+02  7.57604320e+02  7.57597350e+02  7.57591011e+02  7.18847244e+02  7.18828961e+02  7.18815733e+02  7.18805458e+02  7.18797037e+02  7.18789884e+02  7.18783654e+02  7.18778126e+02  7.18773152e+02  7.18768626e+02 
 8.00000000e-01  8.05552676e+02  8.05556672e+02  8.05558023e+02  8.05558709e+02  8.05559126e+02  8.05559408e+02  8.05559612e+02  8.05559767e+02  8.05559890e+02  8.05559989e+02  7.73748194e+02  7.73796065e+02  7.73823916e+02  7.73843623e+02  7.73858875e+02  7.73871309e+02  7.73881799e+02  7.73890867e+02  7.73898849e+02  7.73905974e+02  7.15990191e+02  7.16214671e+02  7.16350386e+02  7.16448685e+02  7.16526082e+02  7.16590067e+02  7.16644687e+02  7.16692387e+02  7.16734757e+02  7.16772892e+02 
 8.50000000e-01  7.52553060e+02  7.52557897e+02  7.52560546e+02  7.52562387e+02  7.52563804e+02  7.52564958e+02  7.52565933e+02  7.52566778e+02  7.52567524e+02  7.52568192e+02  7.29548811e+02  7.31431165e+02  7.32540175e+02  7.33329826e+02  7.33943637e+02  7.34445864e+02  7.34870905e+02  7.35239346e+02  7.35564497e+02  7.35855459e+02  4.80381026e+02  4.96456289e+02  5.06374949e+02  5.13632466e+02  5.19586267e+02  5.24271119e+02  5.28309198e+02  5.31857114e+02  5.35020773e+02  5.37875151e+02 
 9.00000000e-01  6.39191669e+02  6.39204041e+02  6.39211395e+02  6.39216679e+02  6.39220821e+02  6.39224235e+02  6.39227142e+02  6.39229677e+02  6.39231925e+02  6.39233947e+02  6.33201861e+02  6.39397209e+02  6.43005937e+02  6.45557471e+02  6.47530744e+02  6.49138859e+02  6.50495371e+02  6.51667986e+02  6.52700335e+02  6.53622177e+02  1.03533007e+02  1.08192249e+02  1.11133474e+02  1.13323960e+02  1.15085208e+02  1.16565945e+02  1.17848071e+02  1.18981608e+02  1.19999489e+02  1.20924607e+02 
 9.50000000e-01  5.27300390e+02  5.27319806e+02  5.27331443e+02  5.27339834e+02  5.27346421e+02  5.27351855e+02  5.27356488e+02  5.27360529e+02  5.27364115e+02  5.27367340e+02  5.33580206e+02  5.43544075e+02  5.49355162e+02  5.53467282e+02  5.56649476e+02  5.59244136e+02  5.61433789e+02  5.63327314e+02  5.64994894e+02  5.66484415e+02  3.00070469e+01  3.19240977e+01  3.31377194e+01  3.40429764e+01  3.47712840e+01  3.53844585e+01  3.59156820e+01  3.63855585e+01  3.68076631e+01  3.71914368e+01 
 1.00000000e+00  4.38036586e+02  4.38060588e+02  4.38074999e+02  4.38085397e+02  4.38093563e+02  4.38100301e+02  4.38106046e+02  4.38111058e+02  4.38115506e+02  4.38119507e+02  4.50908364e+02  4.63005375e+02  4.70097980e+02  4.75133741e+02  4.79040305e+02  4.82231818e+02  4.84929524e+02  4.87265623e+02  4.89325451e+02  4.91167308e+02  8.91501521e+00  9.72579499e+00  1.02526530e+01  1.06520856e+01  1.09773766e+01  1.12536029e+01  1.14947149e+01  1.17093294e+01  1.19031671e+01  1.20802331e+01 
 1.05000000e+00  3.70242196e+02  3.70268926e+02  3.70284985e+02  3.70296573e+02  3.70305676e+02  3.70313188e+02  3.70319592e+02  3.70325180e+02  3.70330139e+02  3.70334599e+02  3.86102563e+02  3.99103900e+02  4.06768607e+02  4.12230076e+02  4.16478191e+02  4.19956115e+02  4.22901114e+02  4.25455217e+02  4.27710246e+02  4.29729017e+02  2.98416875e+00  3.26583555e+00  3.45230478e+00  3.59561826e+00  3.71362510e+00  3.81477416e+00  3.90378889e+00  3.98359955e+00  4.05615930e+00  4.12284053e+00 
 1.10000000e+00  3.18628431e+02  3.18656858e+02  3.18673940e+02  3.18686268e+02  3.18695951e+02  3.18703943e+02  3.18710756e+02  3.18716701e+02  3.18721976e+02  3.18726722e+02  3.16826417e+02  3.44693480e+02  3.55001958e+02  3.61318610e+02  3.65973529e+02  3.69696149e+02  3.72811706e+02  3.75496520e+02  3.77858192e+02  3.79967738e+02  1.37258143e+00  1.48744193e+00  1.56278623e+00  1.62037900e+00  1.66762432e+00  1.70800777e+00  1.74346979e+00  1.77521007e+00  1.80402592e+00  1.83047618e+00 
 1.15000000e+00  2.71980024e+02  2.72044436e+02  2.72083228e+02  2.72111194e+02  2.72133142e+02  2.72151243e+02  2.72166665e+02  2.72180113e+02  2.72192044e+02  2.72203019e+02  1.37999659e+02  1.79336318e+02  2.08133666e+02  2.30093257e+02  2.47854501e+02  2.62528015e+02  2.74847362e+02  2.85308878e+02  2.94268677e+02  3.01979842e+02  8.10069230e-01  8.71186550e-01  9.10857982e-01  9.40949016e-01  9.65488799e-01  9.86364336e-01  1.00462189e+00  1.02090613e+00  1.03564427e+00  1.04924528e+00 
 1.20000000e+00  1.75383178e+02  1.75521115e+02  1.75614450e+02  1.75681795e+02  1.75734683e+02  1.75795160e+02  1.75832309e+02  1.75864714e+02  1.75893473e+02  1.75919339e+02  5.80864844e+01  7.63014105e+01  8.96007885e+01  1.00431514e+02  1.09720477e+02  1.18036753e+02  1.25418389e+02  1.32170081e+02  1.38411645e+02  1.44229151e+02  5.54391261e-01  5.93475448e-01  6.18609596e-01  6.37566719e-01  6.52959511e-01  6.66013978e-01  6.77391068e-01  6.87511570e-01  6.96649538e-01  7.04996330e-01 
 1.25000000e+00  1.02129024e+02  1.02277528e+02  1.02366739e+02  1.02431106e+02  1.02481633e+02  1.02523363e+02  1.02558915e+02  1.02589927e+02  1.02617449e+02  1.02642200e+02  2.74996761e+01  3.61636773e+01  4.25182772e+01  4.77065689e+01  5.21655115e+01  5.61145282e+01  5.96841107e+01  6.29572033e+01  6.59909036e+01  6.88263833e+01  4.14787257e-01  4.42711846e-01  4.60565967e-01  4.73980438e-01  4.84840334e-01  4.94023229e-01  5.02013402e-01  5.09108062e-01  5.15503492e-01  5.21336497e-01 
 1.30000000e+00  6.25041673e+01  6.26371661e+01  6.27170238e+01  6.27746279e+01  6.28198562e+01  6.28571560e+01  6.28889575e+01  6.29166945e+01  6.29413071e+01  6.29634411e+01  1.45367564e+01  1.89325228e+01  2.22239857e+01  2.49395731e+01  2.72868635e+01  2.93732684e+01  3.12629301e+01  3.29977073e+01  3.46066878e+01  3.61110276e+01  3.28694119e-01  3.50120059e-01  3.63764844e-01  3.73989057e-01  3.82248980e-01  3.89221416e-01  3.95279345e-01  4.00651416e-01  4.05488484e-01  4.09895602e-01 
 1.35000000e+00  4.02580742e+01  4.03799588e+01  4.04530988e+01  4.05058339e+01  4.05472259e+01  4.05813649e+01  4.06104549e+01  4.06358222e+01  4.06583283e+01  4.06785649e+01  8.63044005e+00  1.09440902e+01  1.27083323e+01  1.41862671e+01  1.54790788e+01  1.66389801e+01  1.76972901e+01  1.86746256e+01  1.95854482e+01  2.04403804e+01  2.70958627e-01  2.88211314e-01  2.99166730e-01  3.07359671e-01  3.13968540e-01  3.19540314e-01  3.24376135e-01  3.28660456e-01  3.32514890e-01  3.36024070e-01 
 1.40000000e+00  2.68339357e+01  2.69491565e+01  2.70182291e+01  2.70679999e+01  2.71070469e+01  2.71392397e+01  2.71666627e+01  2.71905700e+01  2.72117757e+01  2.72308392e+01  5.71966353e+00  7.01598547e+00  8.00108171e+00  8.82971069e+00  9.55911294e+00  1.02179925e+01  1.08232056e+01  1.13856775e+01  1.19129869e+01  1.24106589e+01  2.29830404e-01  2.44207639e-01  2.53317299e-01  2.60119842e-01  2.65600876e-01  2.70217460e-01  2.74221043e-01  2.77765546e-01  2.80952396e-01  2.83852145e-01 
 1.45000000e+00  1.82584594e+01  1.83687315e+01  1.84347633e+01  1.84823091e+01  1.85195907e+01  1.85503152e+01  1.85764783e+01  1.85992803e+01  1.86195004e+01  1.86376736e+01  4.13493676e+00  4.92591647e+00  5.51616445e+00  6.00857165e+00  6.44039746e+00  6.82998983e+00  7.18794505e+00  7.52102507e+00  7.83385316e+00  8.12975474e+00  1.99176777e-01  2.11466328e-01  2.19240048e-01  2.25038337e-01  2.29706071e-01  2.33634762e-01  2.37039672e-01  2.40052508e-01  2.42760020e-01  2.45222533e-01 
 1.50000000e+00  1.26710970e+01  1.27745893e+01  1.28365159e+01  1.28810850e+01  1.29160205e+01  1.29377589e+01  1.29622366e+01  1.29835658e+01  1.30024767e+01  1.30194706e+01  3.18588442e+00  3.71101227e+00  4.09472857e+00  4.41076917e+00  4.68551571e+00  4.92562875e+00  5.15022070e+00  5.35849959e+00  5.55363261e+00  5.73788185e+00  1.75518159e-01  1.86230069e-01  1.92996751e-01  1.98039304e-01  2.02095798e-01  2.05505869e-01  2.08461677e-01  2.11075991e-01  2.13424461e-01  2.15559674e-01 
 1.55000000e+00  9.05042691e+00  9.14324125e+00  9.19878487e+00  9.23311337e+00  9.26444950e+00  9.29026818e+00  9.31224967e+00  9.33140417e+00  9.34838734e+00  9.36364926e+00  2.56685813e+00  2.93887832e+00  3.20540188e+00  3.42027357e+00  3.60648007e+00  3.77215231e+00  3.92273932e+00  4.06167513e+00  4.19128139e+00  4.31321004e+00  1.56740187e-01  1.66221274e-01  1.72203898e-01  1.76657779e-01  1.80239497e-01  1.83250954e-01  1.85858577e-01  1.88164122e-01  1.90234570e-01  1.92116473e-01 
 1.60000000e+00  6.72483754e+00  6.80518043e+00  6.85329307e+00  6.88773996e+00  6.91490604e+00  6.93333587e+00  6.95240748e+00  6.96902926e+00  6.98376909e+00  6.99701685e+00  2.13844632e+00  2.41659360e+00  2.61256034e+00  2.76998066e+00  2.90439011e+00  3.02247984e+00  3.12969019e+00  3.22809790e+00  3.31948518e+00  3.40511668e+00  1.41497839e-01  1.49994102e-01  1.55350443e-01  1.59336579e-01  1.62539893e-01  1.65231562e-01  1.67561998e-01  1.69621866e-01  1.71471209e-01  1.73151748e-01 
