 v-sweep         (dc11.i(vib_l)) (dc12.i(vib_l)) (dc13.i(vib_l)) (dc14.i(vib_l)) (dc11.i(vic_l)) (dc12.i(vic_l)) (dc13.i(vic_l)) (dc14.i(vic_l)) dc11.i(vic_l)/dc11.i(vib_l) dc12.i(vic_l)/dc12.i(vib_l) dc13.i(vic_l)/dc13.i(vib_l) dc14.i(vic_l)/dc14.i(vib_l)
 1.00000000e-01  2.08969982e-13  2.09780318e-13  2.10598567e-13  2.11402379e-13  1.10935799e-13  1.11892979e-13  1.12835716e-13  1.13793668e-13  5.30869546e-01  5.33381680e-01  5.35785776e-01  5.38279978e-01 
 1.50000000e-01  3.19099859e-13  3.20825998e-13  3.22590043e-13  3.24284839e-13  1.69907606e-13  1.71668938e-13  1.73433014e-13  1.75212219e-13  5.32459046e-01  5.35084248e-01  5.37626681e-01  5.40303454e-01 
 2.00000000e-01  4.71232120e-13  4.77749319e-13  4.84253572e-13  4.90671416e-13  4.08645449e-13  4.27579842e-13  4.46497141e-13  4.65428217e-13  8.67185049e-01  8.94987862e-01  9.22031693e-01  9.48553760e-01 
 2.50000000e-01  6.91563830e-13  7.08931826e-13  7.26401952e-13  7.43754124e-13  1.62712867e-12  1.75226472e-12  1.87740501e-12  2.00255921e-12  2.35282500e+00  2.47169707e+00  2.58452639e+00  2.69250165e+00 
 3.00000000e-01  1.11707351e-12  1.16413133e-12  1.21105208e-12  1.25805298e-12  9.61580666e-12  1.04626537e-11  1.13094580e-11  1.21563303e-11  8.60803395e+00  8.98752005e+00  9.33853976e+00  9.66281270e+00 
 3.50000000e-01  2.13354383e-12  2.26391838e-12  2.39424115e-12  2.52452384e-12  6.36022256e-11  6.93523921e-11  7.51025607e-11  8.08526830e-11  2.98106019e+01  3.06337864e+01  3.13680018e+01  3.20269041e+01 
 4.00000000e-01  5.03583739e-12  5.42093009e-12  5.80599504e-12  6.19107029e-12  4.30099659e-10  4.69163224e-10  5.08226767e-10  5.47290317e-10  8.54077735e+01  8.65466287e+01  8.75348263e+01  8.83999521e+01 
 4.50000000e-01  1.50465655e-11  1.63327618e-11  1.76187847e-11  1.89048414e-11  2.91975947e-09  3.18515119e-09  3.45054289e-09  3.71593454e-09  1.94048234e+02  1.95016080e+02  1.95844546e+02  1.96559942e+02 
 5.00000000e-01  5.76686399e-11  6.28203838e-11  6.79720932e-11  7.31237105e-11  1.98333729e-08  2.16363606e-08  2.34393484e-08  2.52423361e-08  3.43919553e+02  3.44416244e+02  3.44837820e+02  3.45200427e+02 
 5.50000000e-01  2.76158778e-10  3.01164174e-10  3.26169355e-10  3.51174645e-10  1.34730890e-07  1.46979077e-07  1.59227261e-07  1.71475443e-07  4.87874734e+02  4.88036393e+02  4.88173579e+02  4.88291070e+02 
 6.00000000e-01  1.54037882e-09  1.68030226e-09  1.82022563e-09  1.96014865e-09  9.15111263e-07  9.98301937e-07  1.08149250e-06  1.16468297e-06  5.94081958e+02  5.94120450e+02  5.94152992e+02  5.94180938e+02 
 6.50000000e-01  9.32512588e-09  1.01726671e-08  1.10202010e-08  1.18677283e-08  6.21079338e-06  6.77535543e-06  7.33991249e-06  7.90446491e-06  6.66027833e+02  6.66035304e+02  6.66041616e+02  6.66047004e+02 
 7.00000000e-01  5.84386445e-08  6.37477241e-08  6.90564989e-08  7.43649891e-08  4.19537224e-05  4.57651742e-05  4.95763994e-05  5.33874135e-05  7.17910601e+02  7.17910714e+02  7.17910699e+02  7.17910594e+02 
 7.50000000e-01  3.63322031e-07  3.96214027e-07  4.29093804e-07  4.61962206e-07  2.74982570e-04  2.99874792e-04  3.24757555e-04  3.49631509e-04  7.56856304e+02  7.56850521e+02  7.56845127e+02  7.56840071e+02 
 8.00000000e-01  2.00413972e-06  2.18269470e-06  2.36093896e-06  2.53889502e-06  1.54415774e-03  1.68175558e-03  1.81911587e-03  1.95625581e-03  7.70484077e+02  7.70495104e+02  7.70505253e+02  7.70514652e+02 
 8.50000000e-01  7.79559523e-06  8.46662648e-06  9.13467425e-06  9.79997147e-06  5.67968926e-03  6.17088116e-03  6.66006296e-03  7.14739028e-03  7.28576727e+02  7.28847691e+02  7.29096930e+02  7.29327662e+02 
 9.00000000e-01  2.02828798e-05  2.19683709e-05  2.36420743e-05  2.53049593e-05  1.30963880e-02  1.42021579e-02  1.53014475e-02  1.63947783e-02  6.45686808e+02  6.46482069e+02  6.47212563e+02  6.47887956e+02 
 9.50000000e-01  4.04868309e-05  4.37584278e-05  4.70037432e-05  5.02196508e-05  2.26671647e-02  2.45535400e-02  2.64273561e-02  2.82888386e-02  5.59865125e+02  5.61115680e+02  5.62239393e+02  5.63302177e+02 
 1.00000000e+00  6.89633078e-05  7.44167641e-05  7.98137005e-05  8.51590085e-05  3.35232362e-02  3.62880832e-02  3.90321530e-02  4.17571683e-02  4.86102498e+02  4.87633179e+02  4.89040763e+02  4.90343523e+02 
 1.05000000e+00  1.06108275e-04  1.14358456e-04  1.22513927e-04  1.30583006e-04  4.51966028e-02  4.89018588e-02  5.25777332e-02  5.62266796e-02  4.25947955e+02  4.27619090e+02  4.29157196e+02  4.30581907e+02 
 1.10000000e+00  1.52221541e-04  1.63898642e-04  1.75431450e-04  1.86832761e-04  5.74283806e-02  6.21163458e-02  6.67657612e-02  7.13798612e-02  3.77268423e+02  3.78992437e+02  3.80580342e+02  3.82052166e+02 
 1.15000000e+00  2.09118310e-04  2.24682166e-04  2.40074877e-04  2.55306467e-04  7.00167116e-02  7.57232063e-02  8.13805836e-02  8.69931332e-02  3.34818656e+02  3.37023661e+02  3.38980008e+02  3.40740029e+02 
 1.20000000e+00  3.71659086e-04  3.91318211e-04  4.10494197e-04  4.29253972e-04  8.09274151e-02  8.76567043e-02  9.43350027e-02  1.00966071e-01  2.17746365e+02  2.24003642e+02  2.29808371e+02  2.35212897e+02 
 1.25000000e+00  8.20041796e-04  8.59789324e-04  8.98089755e-04  9.35106645e-04  8.99364082e-02  9.74482553e-02  1.04908002e-01  1.12319797e-01  1.09672956e+02  1.13339690e+02  1.16812380e+02  1.20114425e+02 
 1.30000000e+00  1.68147541e-03  1.76238430e-03  1.84029789e-03  1.91554582e-03  9.86671282e-02  1.06931164e-01  1.15138169e-01  1.23292689e-01  5.86789004e+01  6.06741472e+01  6.25649627e+01  6.43642597e+01 
 1.35000000e+00  3.16996033e-03  3.32109342e-03  3.46665852e-03  3.60728492e-03  1.06924447e-01  1.15938604e-01  1.24891737e-01  1.33788566e-01  3.37305316e+01  3.49097689e+01  3.60265471e+01  3.70884389e+01 
 1.40000000e+00  5.58369101e-03  5.84792553e-03  6.10195624e-03  6.34699045e-03  1.14173510e-01  1.23908353e-01  1.33581537e-01  1.43197489e-01  2.04476770e+01  2.11884286e+01  2.18915921e+01  2.25614785e+01 
 1.45000000e+00  9.23534430e-03  9.68224068e-03  1.01105185e-02  1.05224152e-02  1.19928590e-01  1.30305409e-01  1.40625790e-01  1.50893203e-01  1.29858277e+01  1.34581873e+01  1.39088604e+01  1.43401681e+01 
 1.50000000e+00  1.42595423e-02  1.49933862e-02  1.56959570e-02  1.63707935e-02  1.24050344e-01  1.34938308e-01  1.45780658e-01  1.56579645e-01  8.69946188e+00  8.99985544e+00  9.28778397e+00  9.56457273e+00 
 1.55000000e+00  2.05051815e-02  2.16461709e-02  2.27416045e-02  2.37961617e-02  1.26810506e-01  1.38063367e-01  1.49282640e-01  1.60469701e-01  6.18431519e+00  6.37818890e+00  6.56429675e+00  6.74351194e+00 
 1.60000000e+00  2.76707707e-02  2.93243674e-02  3.09192696e-02  3.24610227e-02  1.28631670e-01  1.40130218e-01  1.51604835e-01  1.63056423e-01  4.64864789e+00  4.77862715e+00  4.90324763e+00  5.02314496e+00 
