 v-sweep         (dc15.i(vib_v)) (dc16.i(vib_v)) (dc17.i(vib_v)) (dc18.i(vib_v)) (dc19.i(vib_v)) (dc20.i(vib_v)) (dc21.i(vib_v)) (dc22.i(vib_v)) (dc15.i(vic_v)) (dc16.i(vic_v)) (dc17.i(vic_v)) (dc18.i(vic_v)) (dc19.i(vic_v)) (dc20.i(vic_v)) (dc21.i(vic_v)) (dc22.i(vic_v)) dc15.i(vic_v)/dc15.i(vib_v) dc16.i(vic_v)/dc16.i(vib_v) dc17.i(vic_v)/dc17.i(vib_v) dc18.i(vic_v)/dc18.i(vib_v) dc19.i(vic_v)/dc19.i(vib_v) dc20.i(vic_v)/dc20.i(vib_v) dc21.i(vic_v)/dc21.i(vib_v) dc22.i(vic_v)/dc22.i(vib_v)
 1.00000000e-01  2.32022482e-13  2.34138971e-13  2.36290064e-13  2.38370507e-13  2.40503414e-13  2.42606224e-13  2.44705014e-13  2.46850952e-13  1.41995817e-13  1.44678307e-13  1.47388937e-13  1.50083007e-13  1.52753849e-13  1.55437544e-13  1.58137080e-13  1.60808957e-13  6.11991630e-01  6.17916385e-01  6.23762736e-01  6.29620707e-01  6.35142122e-01  6.40698915e-01  6.46235552e-01  6.51441509e-01 
 1.50000000e-01  3.68067121e-13  3.72737771e-13  3.77240266e-13  3.81861354e-13  3.86343735e-13  3.90746454e-13  3.95463460e-13  3.99865855e-13  2.32239685e-13  2.37588905e-13  2.42994054e-13  2.48371787e-13  2.53706650e-13  2.59070487e-13  2.64460651e-13  2.69806650e-13  6.30971015e-01  6.37415694e-01  6.44136048e-01  6.50423995e-01  6.56686332e-01  6.63014301e-01  6.68735997e-01  6.74742910e-01 
 2.00000000e-01  6.54436498e-13  6.71506429e-13  6.88357200e-13  7.05291958e-13  7.22169438e-13  7.39067826e-13  7.56242039e-13  7.73141075e-13  1.11311553e-12  1.17387994e-12  1.23469022e-12  1.29542351e-12  1.35618963e-12  1.41695051e-12  1.47773648e-12  1.53844438e-12  1.70087631e+00  1.74812912e+00  1.79367663e+00  1.83671952e+00  1.87793828e+00  1.91721309e+00  1.95405227e+00  1.98986243e+00 
 2.50000000e-01  1.18472602e-12  1.23040106e-12  1.27597247e-12  1.32142673e-12  1.36718739e-12  1.41274078e-12  1.45839780e-12  1.50405482e-12  6.18309761e-12  6.57851818e-12  6.97397530e-12  7.36941707e-12  7.76481120e-12  8.16026901e-12  8.55568537e-12  8.95106752e-12  5.21901056e+00  5.34664540e+00  5.46561579e+00  5.57686392e+00  5.67940523e+00  5.77619699e+00  5.86649636e+00  5.95129075e+00 
 3.00000000e-01  2.45366981e-12  2.57697730e-12  2.70088245e-12  2.82435215e-12  2.94809091e-12  3.07128608e-12  3.19487517e-12  3.31852641e-12  3.95703151e-11  4.21882084e-11  4.48062154e-11  4.74241170e-11  5.00420222e-11  5.26598989e-11  5.52778563e-11  5.78956918e-11  1.61269927e+01  1.63711991e+01  1.65894726e+01  1.67911487e+01  1.69743823e+01  1.71458788e+01  1.73020395e+01  1.74462049e+01 
 3.50000000e-01  5.86869182e-12  6.21324723e-12  6.55782679e-12  6.90257144e-12  7.24693213e-12  7.59138005e-12  7.93612953e-12  8.28069042e-12  2.61009618e-10  2.78386813e-10  2.95764061e-10  3.13141237e-10  3.30518411e-10  3.47895582e-10  3.65272814e-10  3.82649957e-10  4.44749232e+01  4.48053655e+01  4.51009260e+01  4.53658814e+01  4.56080456e+01  4.58277124e+01  4.60265690e+01  4.62099097e+01 
 4.00000000e-01  1.62283751e-11  1.72570449e-11  1.82857625e-11  1.93138977e-11  2.03426868e-11  2.13712719e-11  2.23995312e-11  2.34281594e-11  1.73124179e-09  1.84663114e-09  1.96202050e-09  2.07740988e-09  2.19279916e-09  2.30818852e-09  2.42357786e-09  2.53896714e-09  1.06679922e+02  1.07007379e+02  1.07297713e+02  1.07560365e+02  1.07792996e+02  1.08004266e+02  1.08197705e+02  1.08372455e+02 
 4.50000000e-01  5.31581437e-11  5.66422078e-11  6.01259057e-11  6.36097838e-11  6.70938013e-11  7.05775513e-11  7.40617754e-11  7.75454241e-11  1.14939435e-08  1.22601763e-08  1.30264090e-08  1.37926418e-08  1.45588745e-08  1.53251073e-08  1.60913400e-08  1.68575727e-08  2.16221688e+02  2.16449477e+02  2.16652188e+02  2.16832081e+02  2.16992840e+02  2.17138552e+02  2.17269164e+02  2.17389651e+02 
 5.00000000e-01  2.12991740e-10  2.27124302e-10  2.41257234e-10  2.55389643e-10  2.69522665e-10  2.83655092e-10  2.97788276e-10  3.11920704e-10  7.63184087e-08  8.14062673e-08  8.64941257e-08  9.15819842e-08  9.66698422e-08  1.01757700e-07  1.06845558e-07  1.11933416e-07  3.58316284e+02  3.58421651e+02  3.58514123e+02  3.58597095e+02  3.58670549e+02  3.58737436e+02  3.58797061e+02  3.58852153e+02 
 5.50000000e-01  1.03447626e-09  1.10336819e-09  1.17225953e-09  1.24115094e-09  1.31004288e-09  1.37893405e-09  1.44782589e-09  1.51671735e-09  5.06713470e-07  5.40494248e-07  5.74275020e-07  6.08055787e-07  6.41836549e-07  6.75617306e-07  7.09398058e-07  7.43178806e-07  4.89826096e+02  4.89858467e+02  4.89887269e+02  4.89912844e+02  4.89935528e+02  4.89956213e+02  4.89974702e+02  4.89991631e+02 
 6.00000000e-01  5.75534967e-09  6.13895334e-09  6.52255718e-09  6.90616068e-09  7.28976377e-09  7.67336585e-09  8.05696814e-09  8.44057076e-09  3.36358418e-06  3.58781942e-06  3.81205440e-06  4.03628915e-06  4.26052367e-06  4.48475798e-06  4.70899208e-06  4.93322599e-06  5.84427424e+02  5.84435036e+02  5.84441700e+02  5.84447616e+02  5.84452913e+02  5.84457729e+02  5.84462046e+02  5.84465924e+02 
 6.50000000e-01  3.44896596e-08  3.67886449e-08  3.90876135e-08  4.13865669e-08  4.36855061e-08  4.59844307e-08  4.82833409e-08  5.05822400e-08  2.23066764e-05  2.37936268e-05  2.52805663e-05  2.67674953e-05  2.82544144e-05  2.97413241e-05  3.12282248e-05  3.27151169e-05  6.46764180e+02  6.46765514e+02  6.46766687e+02  6.46767715e+02  6.46768619e+02  6.46769432e+02  6.46770175e+02  6.46770821e+02 
 7.00000000e-01  2.13273957e-07  2.27482284e-07  2.41689943e-07  2.55896967e-07  2.70103387e-07  2.84309234e-07  2.98514531e-07  3.12719302e-07  1.47125107e-04  1.56926459e-04  1.66727335e-04  1.76527761e-04  1.86327759e-04  1.96127349e-04  2.05926548e-04  2.15725374e-04  6.89840943e+02  6.89840353e+02  6.89839773e+02  6.89839209e+02  6.89838662e+02  6.89838124e+02  6.89837602e+02  6.89837093e+02 
 7.50000000e-01  1.30529534e-06  1.39193479e-06  1.47854861e-06  1.56513815e-06  1.65170462e-06  1.73824912e-06  1.82477261e-06  1.91127600e-06  9.38181732e-04  1.00044974e-03  1.06269904e-03  1.12493063e-03  1.18714538e-03  1.24934409e-03  1.31152748e-03  1.37369619e-03  7.18750540e+02  7.18747566e+02  7.18744748e+02  7.18742070e+02  7.18739518e+02  7.18737079e+02  7.18734744e+02  7.18732504e+02 
 8.00000000e-01  7.07792493e-06  7.54023241e-06  8.00192241e-06  8.46302916e-06  8.92358319e-06  9.38361190e-06  9.84314006e-06  1.03021901e-05  5.07431794e-03  5.40593704e-03  5.73712455e-03  6.06790435e-03  6.39829777e-03  6.72832392e-03  7.05800008e-03  7.38734194e-03  7.16921696e+02  7.16945679e+02  7.16968280e+02  7.16989655e+02  7.17009931e+02  7.17029219e+02  7.17047612e+02  7.17065193e+02 
 8.50000000e-01  3.12966875e-05  3.32067671e-05  3.51066400e-05  3.69969492e-05  3.88782643e-05  4.07510936e-05  4.26051358e-05  4.44637327e-05  1.71830680e-02  1.82914977e-02  1.93974871e-02  2.05011680e-02  2.16026583e-02  2.27020638e-02  2.38017263e-02  2.48969446e-02  5.49037914e+02  5.50836450e+02  5.52530437e+02  5.54131313e+02  5.55648732e+02  5.57090909e+02  5.58658619e+02  5.59938248e+02 
 9.00000000e-01  2.16633092e-04  2.29505932e-04  2.42287161e-04  2.54982416e-04  2.67596696e-04  2.80134463e-04  2.92599702e-04  3.04996082e-04  2.69963198e-02  2.87400219e-02  3.04801661e-02  3.22169537e-02  3.39505640e-02  3.56811576e-02  3.74088803e-02  3.91338624e-02  1.24617710e+02  1.25225617e+02  1.25801821e+02  1.26349708e+02  1.26872134e+02  1.27371539e+02  1.27850029e+02  1.28309394e+02 
 9.50000000e-01  9.92273949e-04  1.04938422e-03  1.10599154e-03  1.16212818e-03  1.21782268e-03  1.27310045e-03  1.32798426e-03  1.38249463e-03  3.83783005e-02  4.08495159e-02  4.33151136e-02  4.57754081e-02  4.82306800e-02  5.06811810e-02  5.31271386e-02  5.55687591e-02  3.86771219e+01  3.89271299e+01  3.91640550e+01  3.93892936e+01  3.96040252e+01  3.98092556e+01  4.00058496e+01  4.01945570e+01 
 1.00000000e+00  3.83919887e-03  4.05101747e-03  4.26046085e-03  4.46768661e-03  4.67283387e-03  4.87602628e-03  5.07737442e-03  5.27697775e-03  4.91229337e-02  5.23145922e-02  5.55004668e-02  5.86808550e-02  6.18560237e-02  6.50262135e-02  6.81916426e-02  7.13525099e-02  1.27951001e+01  1.29139389e+01  1.30268693e+01  1.31345057e+01  1.32373685e+01  1.33359030e+01  1.34304932e+01  1.35214726e+01 
 1.05000000e+00  1.25199654e-02  1.32068771e-02  1.38855602e-02  1.45565471e-02  1.52203084e-02  1.58772636e-02  1.65277882e-02  1.71722208e-02  5.50380556e-02  5.86657862e-02  6.22903905e-02  6.59120095e-02  6.95307707e-02  7.31467893e-02  7.67601706e-02  8.03710109e-02  4.39602299e+00  4.44206347e+00  4.48598324e+00  4.52799755e+00  4.56828920e+00  4.60701486e+00  4.64430991e+00  4.68029220e+00 
 1.10000000e+00  2.94591559e-02  3.11220455e-02  3.27676431e-02  3.43970295e-02  3.60111622e-02  3.76108955e-02  3.91969960e-02  4.07701555e-02  5.71090883e-02  6.08987953e-02  6.46871719e-02  6.84742773e-02  7.22601643e-02  7.60448812e-02  7.98284717e-02  8.36109761e-02  1.93858536e+00  1.95677354e+00  1.97411732e+00  1.99070322e+00  2.00660461e+00  2.02188435e+00  2.03659667e+00  2.05078875e+00 
 1.15000000e+00  5.23950974e-02  5.54199960e-02  5.84177902e-02  6.13901557e-02  6.43385781e-02  6.72643829e-02  7.01687603e-02  7.30527846e-02  5.78460683e-02  6.16934844e-02  6.55402328e-02  6.93863441e-02  7.32318455e-02  7.70767619e-02  8.09211159e-02  8.47649281e-02  1.10403590e+00  1.11319901e+00  1.12192249e+00  1.13025196e+00  1.13822605e+00  1.14587778e+00  1.15323565e+00  1.16032440e+00 
 1.20000000e+00  7.87497692e-02  8.33588863e-02  8.79308579e-02  9.24679752e-02  9.69722697e-02  1.01445554e-01  1.05889456e-01  1.10305444e-01  5.81730714e-02  6.20457342e-02  6.59179925e-02  6.97898651e-02  7.36613692e-02  7.75325201e-02  8.14033320e-02  8.52738175e-02  7.38707833e-01  7.44320575e-01  7.49657106e-01  7.54746332e-01  7.59612716e-01  7.64277163e-01  7.68757678e-01  7.73069893e-01 
 1.25000000e+00  1.07095874e-01  1.13417484e-01  1.19691707e-01  1.25921467e-01  1.32109354e-01  1.38257681e-01  1.44368525e-01  1.50443759e-01  5.83478580e-02  6.22338620e-02  6.61195883e-02  7.00050500e-02  7.38902592e-02  7.77752265e-02  8.16599619e-02  8.55444742e-02  5.44818917e-01  5.48714888e-01  5.52415784e-01  5.55942143e-01  5.59311336e-01  5.62538196e-01  5.65635494e-01  5.68614311e-01 
 1.30000000e+00  1.36703732e-01  1.44818342e-01  1.52875145e-01  1.60877710e-01  1.68829229e-01  1.76732467e-01  1.84589986e-01  1.92404073e-01  5.84536785e-02  6.23476915e-02  6.62414974e-02  7.01351063e-02  7.40285255e-02  7.79217663e-02  8.18148347e-02  8.57077372e-02  4.27593874e-01  4.30523444e-01  4.33304558e-01  4.35952912e-01  4.38481689e-01  4.40902386e-01  4.43224664e-01  4.45456980e-01 
 1.35000000e+00  1.67166954e-01  1.77128717e-01  1.87022104e-01  1.96851340e-01  2.06620168e-01  2.16331928e-01  2.25989619e-01  2.35595948e-01  5.85236556e-02  6.24229316e-02  6.63220443e-02  7.02210018e-02  7.41198112e-02  7.80184789e-02  8.19170110e-02  8.58154126e-02  3.50091057e-01  3.52415648e-01  3.54621421e-01  3.56720974e-01  3.58724959e-01  3.60642462e-01  3.62481301e-01  3.64248254e-01 
 1.40000000e+00  1.98243040e-01  2.10090517e-01  2.21858928e-01  2.33553160e-01  2.45177544e-01  2.56735945e-01  2.68231833e-01  2.79668339e-01  5.85729764e-02  6.24759441e-02  6.63787779e-02  7.02814843e-02  7.41840694e-02  7.80865384e-02  8.19888963e-02  8.58911475e-02  2.95460442e-01  2.97376316e-01  2.99193629e-01  3.00922858e-01  3.02572855e-01  3.04151171e-01  3.05664303e-01  3.07117880e-01 
 1.45000000e+00  2.29777710e-01  2.43539615e-01  2.57211663e-01  2.70799409e-01  2.84307781e-01  2.97741171e-01  3.11103526e-01  3.24398405e-01  5.86094366e-02  6.25151230e-02  6.64206963e-02  7.03261621e-02  7.42315255e-02  7.81367910e-02  8.20419627e-02  8.59470444e-02  2.55070157e-01  2.56693856e-01  2.58233610e-01  2.59698359e-01  2.61095652e-01  2.62431932e-01  2.63712738e-01  2.64942870e-01 
 1.50000000e+00  2.61667444e-01  2.77365923e-01  2.92963668e-01  3.08466913e-01  3.23881182e-01  3.39211404e-01  3.54462001e-01  3.69636967e-01  5.86374015e-02  6.25451668e-02  6.64528345e-02  7.03604092e-02  7.42678956e-02  7.81752974e-02  8.20826184e-02  8.59898617e-02  2.24091315e-01  2.25496940e-01  2.26829610e-01  2.28097103e-01  2.29305991e-01  2.30461879e-01  2.31569585e-01  2.32633284e-01 
 1.55000000e+00  2.93839733e-01  3.11492352e-01  3.29033292e-01  3.46469467e-01  3.63807003e-01  3.81051366e-01  3.98207463e-01  4.15279721e-01  5.86594875e-02  6.25688904e-02  6.64782074e-02  7.03874429e-02  7.42966006e-02  7.82056842e-02  8.21146967e-02  8.60236410e-02  1.99630890e-01  2.00868144e-01  2.02040976e-01  2.03156265e-01  2.04219820e-01  2.05236593e-01  2.06210843e-01  2.07146260e-01 
 1.60000000e+00  3.26241967e-01  3.45862984e-01  3.65361317e-01  3.84744564e-01  4.04019458e-01  4.23192005e-01  4.42267596e-01  4.61251097e-01  5.86773493e-02  6.25880737e-02  6.64987215e-02  7.04092966e-02  7.43198025e-02  7.82302423e-02  8.21406187e-02  8.60509345e-02  1.79858373e-01  1.80962047e-01  1.82008106e-01  1.83002707e-01  1.83951047e-01  1.84857562e-01  1.85726061e-01  1.86559848e-01 
