 v-sweep         (dc1.i(vib))    (dc2.i(vib))    (dc3.i(vib))    (dc4.i(vib))    (dc5.i(vib))    (dc6.i(vib))    (dc7.i(vib))    (dc8.i(vib))    (dc9.i(vib))    (dc10.i(vib))   (dc1.i(vib_l))  (dc2.i(vib_l))  (dc3.i(vib_l))  (dc4.i(vib_l))  (dc5.i(vib_l))  (dc6.i(vib_l))  (dc7.i(vib_l))  (dc8.i(vib_l))  (dc9.i(vib_l))  (dc10.i(vib_l)) (dc1.i(vib_v))  (dc2.i(vib_v))  (dc3.i(vib_v))  (dc4.i(vib_v))  (dc5.i(vib_v))  (dc6.i(vib_v))  (dc7.i(vib_v))  (dc8.i(vib_v))  (dc9.i(vib_v))  (dc10.i(vib_v))
 1.00000000e-01  2.00592341e-13  2.01186160e-13  2.01782390e-13  2.02371629e-13  2.02959229e-13  2.03555208e-13  2.04152043e-13  2.04743957e-13  2.05341529e-13  2.05930265e-13  2.01774440e-13  2.03550289e-13  2.05323406e-13  2.07096523e-13  2.08875754e-13  2.10638593e-13  2.12441198e-13  2.14199918e-13  2.15984678e-13  2.17766575e-13  2.02134765e-13  2.04262671e-13  2.06390749e-13  2.08541013e-13  2.10662854e-13  2.12781921e-13  2.14910160e-13  2.17025604e-13  2.19186429e-13  2.21359403e-13 
 1.50000000e-01  3.01263319e-13  3.02525417e-13  3.03788923e-13  3.05051957e-13  3.06325378e-13  3.07575388e-13  3.08846953e-13  3.10109713e-13  3.11372024e-13  3.12642037e-13  3.03784819e-13  3.07574482e-13  3.11350486e-13  3.15137417e-13  3.18896899e-13  3.22675723e-13  3.26490016e-13  3.30274216e-13  3.34072206e-13  3.37836889e-13  3.04542097e-13  3.09080665e-13  3.13621315e-13  3.18148790e-13  3.22679726e-13  3.27222448e-13  3.31807814e-13  3.36321086e-13  3.40891889e-13  3.45500108e-13 
 2.00000000e-01  4.04744316e-13  4.09487497e-13  4.14227529e-13  4.18973497e-13  4.23711884e-13  4.28445378e-13  4.33201419e-13  4.37953838e-13  4.42700904e-13  4.47421157e-13  4.14115669e-13  4.28239618e-13  4.42355371e-13  4.56471125e-13  4.70558129e-13  4.84677915e-13  4.98869034e-13  5.12977849e-13  5.27070448e-13  5.41091756e-13  4.16962298e-13  4.33937914e-13  4.50873321e-13  4.67853101e-13  4.84789553e-13  5.01747489e-13  5.18669703e-13  5.35737544e-13  5.52648331e-13  5.69646494e-13 
 2.50000000e-01  5.12869696e-13  5.25739529e-13  5.38604383e-13  5.51466841e-13  5.64339761e-13  5.77215533e-13  5.90072918e-13  6.02952995e-13  6.15815686e-13  6.28680879e-13  5.37936384e-13  5.75879021e-13  6.13813462e-13  6.51764294e-13  6.89668685e-13  7.27633177e-13  7.65605864e-13  8.03534841e-13  8.41452892e-13  8.79409188e-13  5.45640373e-13  5.91283876e-13  6.36936391e-13  6.82534837e-13  7.28200869e-13  7.73839867e-13  8.19451830e-13  8.65108850e-13  9.10675756e-13  9.56440915e-13 
 3.00000000e-01  6.35432355e-13  6.70866911e-13  7.06293510e-13  7.41729696e-13  7.77171126e-13  8.12591273e-13  8.48005915e-13  8.83447644e-13  9.18855413e-13  9.54325542e-13  7.02428852e-13  8.04867393e-13  9.07269164e-13  1.00971169e-12  1.11212413e-12  1.21452061e-12  1.31691110e-12  1.41937844e-12  1.52188428e-12  1.62417053e-12  7.23562065e-13  8.47135097e-13  9.70663088e-13  1.09424511e-12  1.21780774e-12  1.34144802e-12  1.46500236e-12  1.58853724e-12  1.71209850e-12  1.83562646e-12 
 3.50000000e-01  8.02149317e-13  9.04299627e-13  1.00644919e-12  1.10859598e-12  1.21075484e-12  1.31290557e-12  1.41506672e-12  1.51721073e-12  1.61936299e-12  1.72149917e-12  9.83972811e-13  1.26795875e-12  1.55189005e-12  1.83584320e-12  2.11986478e-12  2.40383173e-12  2.68777664e-12  2.97180880e-12  3.25567757e-12  3.53966620e-12  1.04457610e-12  1.38915297e-12  1.73374024e-12  2.07825265e-12  2.42281909e-12  2.76743412e-12  3.11205607e-12  3.45656015e-12  3.80116818e-12  4.14562093e-12 
 4.00000000e-01  1.12290649e-12  1.44580795e-12  1.76871417e-12  2.09163497e-12  2.41453253e-12  2.73742668e-12  3.06032583e-12  3.38326277e-12  3.70614291e-12  4.02903614e-12  1.63906420e-12  2.47811218e-12  3.31718349e-12  4.15623000e-12  4.99534215e-12  5.83439967e-12  6.67344644e-12  7.51257490e-12  8.35169278e-12  9.19074458e-12  1.82856061e-12  2.85714785e-12  3.88566855e-12  4.91425025e-12  5.94286316e-12  6.97133880e-12  7.99989620e-12  9.02834690e-12  1.00567913e-11  1.10855907e-11 
 4.50000000e-01  2.08138030e-12  3.26274998e-12  4.44412945e-12  5.62552751e-12  6.80689124e-12  7.98825537e-12  9.16965668e-12  1.03510212e-11  1.15324247e-11  1.27137382e-11  3.70225932e-12  6.50453864e-12  9.30678813e-12  1.21090536e-11  1.49113113e-11  1.77135799e-11  2.05157659e-11  2.33180834e-11  2.61204449e-11  2.89226972e-11  4.38389848e-12  7.86775933e-12  1.13516361e-11  1.48355171e-11  1.83194937e-11  2.18032124e-11  2.52871537e-11  2.87710326e-11  3.22549378e-11  3.57388236e-11 
 5.00000000e-01  6.14355116e-12  1.12870998e-11  1.64306387e-11  2.15741828e-11  2.67177220e-11  3.18613039e-11  3.70048515e-11  4.21483573e-11  4.72919067e-11  5.24354830e-11  1.22253461e-11  2.34506720e-11  3.46760073e-11  4.59014220e-11  5.71267384e-11  6.83519942e-11  7.95772888e-11  9.08027254e-11  1.02027976e-10  1.13253456e-10  1.51327855e-11  2.92655593e-11  4.33982929e-11  5.75311249e-11  7.16638495e-11  8.57966822e-11  9.99293602e-11  1.14062184e-10  1.28194909e-10  1.42327777e-10 
 5.50000000e-01  2.71156128e-11  5.31312147e-11  7.91468340e-11  1.05162437e-10  1.31178078e-10  1.57193651e-10  1.83209258e-10  2.09224923e-10  2.35240497e-10  2.61256105e-10  5.55858928e-11  1.10071681e-10  1.64557437e-10  2.19043149e-10  2.73528946e-10  3.28014568e-10  3.82500151e-10  4.36985866e-10  4.91471712e-10  5.45957176e-10  6.99921179e-11  1.38884070e-10  2.07775892e-10  2.76667721e-10  3.45559506e-10  4.14451280e-10  4.83343057e-10  5.52234879e-10  6.21126329e-10  6.90018161e-10 
 6.00000000e-01  1.46186618e-10  2.91173223e-10  4.36159818e-10  5.81146440e-10  7.26133068e-10  8.71119650e-10  1.01610617e-09  1.16109276e-09  1.30607940e-09  1.45106606e-09  3.06102769e-10  6.11001865e-10  9.15899357e-10  1.22079573e-09  1.52569135e-09  1.83058616e-09  2.13548042e-09  2.44037423e-09  2.74526764e-09  3.05016047e-09  3.84823139e-10  7.68440244e-10  1.15205483e-09  1.53566753e-09  1.91927892e-09  2.30288924e-09  2.68649852e-09  3.07010719e-09  3.45371474e-09  3.83732200e-09 
 6.50000000e-01  8.51702248e-10  1.70210427e-09  2.55250620e-09  3.40290810e-09  4.25330997e-09  5.10371182e-09  5.95411363e-09  6.80451537e-09  7.65491718e-09  8.50531895e-09  1.84870533e-09  3.69595487e-09  5.54313629e-09  7.39027112e-09  9.23736997e-09  1.10844393e-08  1.29314838e-08  1.47785065e-08  1.66255099e-08  1.84724953e-08  2.30105794e-09  4.60057404e-09  6.89998490e-09  9.19932372e-09  1.14986069e-08  1.37978446e-08  1.60970436e-08  1.83962088e-08  2.06953443e-08  2.29944522e-08 
 7.00000000e-01  5.09879804e-09  1.01961893e-08  1.52935780e-08  2.03909649e-08  2.54883506e-08  3.05857352e-08  3.56831190e-08  4.07805019e-08  4.58778843e-08  5.09752660e-08  1.15974415e-08  2.31867904e-08  3.47732181e-08  4.63576462e-08  5.79405332e-08  6.95221586e-08  8.11027111e-08  9.26823285e-08  1.04261115e-07  1.15839152e-07  1.42415734e-08  2.84717878e-08  4.26976591e-08  5.69205576e-08  7.11411655e-08  8.53598980e-08  9.95770360e-08  1.13792784e-07  1.28007297e-07  1.42220697e-07 
 7.50000000e-01  3.03531899e-08  6.07046541e-08  9.10560284e-08  1.21407343e-07  1.51758613e-07  1.82109846e-07  2.12461049e-07  2.42812225e-07  2.73163379e-07  3.03514511e-07  7.28025261e-08  1.45326905e-07  2.17731384e-07  2.90054032e-07  3.62313758e-07  4.34522048e-07  5.06686675e-07  5.78813271e-07  6.50906117e-07  7.22968584e-07  8.78798582e-08  1.75366495e-07  2.62683621e-07  3.49885125e-07  4.36997762e-07  5.24037781e-07  6.11016171e-07  6.97940896e-07  7.84818005e-07  8.71652263e-07 
 8.00000000e-01  1.65486961e-07  3.30966591e-07  4.96443922e-07  6.61919727e-07  8.27394381e-07  9.92868106e-07  1.15834105e-06  1.32381333e-06  1.48928501e-06  1.65475616e-06  4.20468189e-07  8.32590420e-07  1.24124440e-06  1.64757137e-06  2.05213027e-06  2.45525721e-06  2.85717784e-06  3.25805458e-06  3.65801022e-06  4.05714092e-06  4.94668499e-07  9.78492065e-07  1.45782848e-06  1.93415945e-06  2.40820961e-06  2.88041426e-06  3.35106539e-06  3.82037303e-06  4.28849587e-06  4.75555815e-06 
 8.50000000e-01  6.82364245e-07  1.36465876e-06  2.04692596e-06  2.72917503e-06  3.41141041e-06  4.09363476e-06  4.77584985e-06  5.45805695e-06  6.14025702e-06  6.82245080e-06  1.81290419e-06  3.51738431e-06  5.18058268e-06  6.81696773e-06  8.43342437e-06  1.00340110e-05  1.16214102e-05  1.31975288e-05  1.47637924e-05  1.63213075e-05  2.56519659e-06  4.88234543e-06  7.10621860e-06  9.27013882e-06  1.13867036e-05  1.34725693e-05  1.55292379e-05  1.75611589e-05  1.95716335e-05  2.15632050e-05 
 9.00000000e-01  1.95027278e-06  3.90019221e-06  5.84997048e-06  7.79965502e-06  9.74926882e-06  1.16988256e-05  1.36483345e-05  1.55978022e-05  1.75472335e-05  1.94966323e-05  5.23008143e-06  9.91516806e-06  1.44090720e-05  1.87821480e-05  2.30670407e-05  2.72826663e-05  3.14413657e-05  3.55518178e-05  3.96204534e-05  4.36522248e-05  1.87063324e-05  3.51890993e-05  5.08465857e-05  6.59741529e-05  8.07111076e-05  9.51391377e-05  1.09311855e-04  1.23267239e-04  1.37033573e-04  1.50632732e-04 
 9.50000000e-01  4.24808606e-06  8.49507363e-06  1.27416208e-05  1.69878757e-05  2.12339100e-05  2.54797664e-05  2.97254735e-05  3.39710519e-05  3.82165170e-05  4.24618807e-05  1.12754557e-05  2.09809916e-05  3.01661161e-05  3.90281293e-05  4.76570807e-05  5.61045743e-05  6.44039916e-05  7.25786480e-05  8.06457201e-05  8.86183692e-05  9.22161877e-05  1.70263849e-04  2.43310930e-04  3.13206024e-04  3.80809945e-04  4.46612838e-04  5.10942327e-04  5.74025790e-04  6.36031499e-04  6.97088886e-04 
 1.00000000e+00  7.76368514e-06  1.55248001e-05  2.32848839e-05  3.10442832e-05  3.88031657e-05  4.65616319e-05  5.43197486e-05  6.20775638e-05  6.98351137e-05  7.75924264e-05  2.03145560e-05  3.72711158e-05  5.31565563e-05  6.83847175e-05  8.31424415e-05  9.75360216e-05  1.11633834e-04  1.25483423e-04  1.39119679e-04  1.52569249e-04  3.87275308e-04  7.02079138e-04  9.91803963e-04  1.26588731e-03  1.52867914e-03  1.78268449e-03  2.02952832e-03  2.27034744e-03  2.50598006e-03  2.73706876e-03 
 1.05000000e+00  1.26191647e-05  2.52332892e-05  3.78453909e-05  5.04561498e-05  6.30658953e-05  7.56748241e-05  8.82830674e-05  1.00890719e-04  1.13497851e-04  1.26104517e-04  3.25926481e-05  5.91605763e-05  8.38585649e-05  1.07418303e-04  1.30167717e-04  1.52292430e-04  1.73911394e-04  1.95107060e-04  2.15939778e-04  2.36455537e-04  1.25647189e-03  2.28632099e-03  3.23498357e-03  4.13230051e-03  4.99219287e-03  5.82274744e-03  6.62924621e-03  7.41540577e-03  8.18398021e-03  8.93708995e-03 
 1.10000000e+00  1.88939235e-05  3.77790545e-05  5.66606565e-05  7.55399162e-05  9.44174081e-05  1.13293475e-04  1.32168347e-04  1.51042187e-04  1.69915119e-04  1.88787241e-04  5.08378668e-05  8.78288388e-05  1.23086967e-04  1.56842663e-04  1.89423999e-04  2.21072121e-04  2.51955471e-04  2.82195200e-04  3.11881642e-04  3.41084331e-04  2.79864764e-03  5.15578612e-03  7.35212177e-03  9.44584688e-03  1.14642615e-02  1.34232956e-02  1.53333938e-02  1.72019306e-02  1.90343873e-02  2.08349959e-02 
 1.15000000e+00  2.72146998e-05  5.44085498e-05  8.15940141e-05  1.08773933e-04  1.35949671e-04  1.63122041e-04  1.90291586e-04  2.17458695e-04  2.44623661e-04  2.71786488e-04  1.34467112e-04  1.97734247e-04  2.48473426e-04  2.93494710e-04  3.34937519e-04  3.74164092e-04  4.11901648e-04  4.48600840e-04  4.84558003e-04  5.19997527e-04  4.78273356e-03  8.88578841e-03  1.27401985e-02  1.64358895e-02  2.00149094e-02  2.35018097e-02  2.69126986e-02  3.02589556e-02  3.35490441e-02  3.67860656e-02 
 1.20000000e+00  4.87400549e-05  9.73891593e-05  1.45993273e-04  1.94570747e-04  2.43128138e-04  2.91641847e-04  3.40165045e-04  3.88676567e-04  4.37177817e-04  4.85669892e-04  3.55662577e-04  5.19075676e-04  6.45853866e-04  7.53619389e-04  8.49204253e-04  9.35296269e-04  1.01584817e-03  1.09121740e-03  1.16235709e-03  1.22996479e-03  7.01584399e-03  1.30995485e-02  1.88435038e-02  2.43703322e-02  2.97375504e-02  3.49784165e-02  4.01155354e-02  4.51642040e-02  5.01359933e-02  5.50398341e-02 
 1.25000000e+00  9.37839975e-05  1.87254247e-04  2.80599366e-04  3.73861633e-04  4.67061570e-04  5.60211096e-04  6.53318595e-04  7.46389798e-04  8.39429083e-04  9.32439864e-04  8.18709341e-04  1.20077858e-03  1.49629939e-03  1.74695058e-03  1.96885602e-03  2.17033756e-03  2.35627366e-03  2.52988327e-03  2.69340033e-03  2.84845238e-03  9.39723255e-03  1.76012563e-02  2.53712648e-02  3.28639981e-02  4.01529645e-02  4.72810595e-02  5.42764154e-02  6.11589005e-02  6.79432880e-02  7.46409888e-02 
 1.30000000e+00  1.69681816e-04  3.38528901e-04  5.07044318e-04  6.75340407e-04  8.43471419e-04  1.01146987e-03  1.17935690e-03  1.34714812e-03  1.51485510e-03  1.68248690e-03  1.64504253e-03  2.45923928e-03  3.08445335e-03  3.61185550e-03  4.07713911e-03  4.49855591e-03  4.88688393e-03  5.24910811e-03  5.59005389e-03  5.91321872e-03  1.18742541e-02  2.22876925e-02  3.21706153e-02  4.17147794e-02  5.10100708e-02  6.01089251e-02  6.90457229e-02  7.78447401e-02  8.65240248e-02  9.50975150e-02 
 1.35000000e+00  2.88409023e-04  5.74801688e-04  8.60397049e-04  1.14546619e-03  1.43013978e-03  1.71449553e-03  1.99858522e-03  2.28244586e-03  2.56610528e-03  2.84958518e-03  2.87527781e-03  4.45554104e-03  5.68153669e-03  6.71525608e-03  7.62442679e-03  8.44494221e-03  9.19844892e-03  9.89913968e-03  1.05568875e-02  1.11788718e-02  1.44171452e-02  2.71008871e-02  3.91559365e-02  5.08097076e-02  6.21687576e-02  7.32952301e-02  8.42298625e-02  9.50014146e-02  1.05631265e-01  1.16135921e-01 
 1.40000000e+00  4.67484340e-04  9.30391688e-04  1.39150161e-03  1.85142827e-03  2.31046698e-03  2.76879319e-03  3.22652359e-03  3.68374153e-03  4.14050964e-03  4.59687671e-03  4.43294542e-03  7.14707178e-03  9.32219142e-03  1.11850854e-02  1.28366866e-02  1.43331328e-02  1.57096130e-02  1.69899343e-02  1.81910890e-02  1.93256979e-02  1.70078039e-02  3.20057713e-02  4.62755570e-02  6.00807286e-02  7.35447420e-02  8.67395805e-02  9.97124230e-02  1.12496572e-01  1.25116781e-01  1.37592160e-01 
 1.45000000e+00  7.31136353e-04  1.45243306e-03  2.16989924e-03  2.88485174e-03  3.59792203e-03  4.30948450e-03  5.01978776e-03  5.72900925e-03  6.43728208e-03  7.14470989e-03  6.21137702e-03  1.03511461e-02  1.37894305e-02  1.68024467e-02  1.95170328e-02  2.20057308e-02  2.43151929e-02  2.64777393e-02  2.85169514e-02  3.04507061e-02  1.96345462e-02  3.69797787e-02  5.34962923e-02  6.94842012e-02  8.50840417e-02  1.00377740e-01  1.15418986e-01  1.30245672e-01  1.44885960e-01  1.59361592e-01 
 1.50000000e+00  1.10327929e-03  2.18702372e-03  3.26323231e-03  4.33451193e-03  5.40210905e-03  6.46985314e-03  7.53256335e-03  8.59316583e-03  9.65192180e-03  1.07090344e-02  8.12869114e-03  1.38858053e-02  1.88065184e-02  2.32071535e-02  2.72349599e-02  3.10077774e-02  3.45219824e-02  3.78427641e-02  4.09987410e-02  4.40118409e-02  2.22892398e-02  4.20072398e-02  6.07951353e-02  7.89899037e-02  9.67493078e-02  1.14166410e-01  1.31299425e-01  1.48191805e-01  1.64875150e-01  1.81373854e-01 
 1.55000000e+00  1.59388246e-03  3.15318552e-03  4.69924309e-03  6.23993015e-03  7.77169103e-03  9.29829943e-03  1.08206154e-02  1.23392515e-02  1.38546663e-02  1.53672162e-02  1.01444067e-02  1.76542058e-02  2.42140617e-02  3.01876560e-02  3.57180701e-02  4.09095745e-02  4.58246639e-02  5.05073488e-02  5.49902461e-02  5.92984662e-02  2.49667428e-02  4.70782751e-02  6.81576061e-02  8.85793393e-02  1.08517708e-01  1.28075146e-01  1.47318517e-01  1.66295003e-01  1.85039667e-01  2.03579574e-01 
 1.60000000e+00  2.18894882e-03  4.32358959e-03  6.43752015e-03  8.53815783e-03  1.06285956e-02  1.27170848e-02  1.47937839e-02  1.68647551e-02  1.89307147e-02  2.09922193e-02  1.22242485e-02  2.15722136e-02  2.98700568e-02  3.75012386e-02  4.46441040e-02  5.14131952e-02  5.78615034e-02  6.40445487e-02  6.99984031e-02  7.57508984e-02  2.76626656e-02  5.21844532e-02  7.55713505e-02  9.82348206e-02  1.20367408e-01  1.42081792e-01  1.63450638e-01  1.84526205e-01  2.05347036e-01  2.25942880e-01 
