 v-sweep         (dc1.i(vic))    (dc2.i(vic))    (dc3.i(vic))    (dc4.i(vic))    (dc5.i(vic))    (dc6.i(vic))    (dc7.i(vic))    (dc8.i(vic))    (dc9.i(vic))    (dc10.i(vic))   (dc1.i(vic_l))  (dc2.i(vic_l))  (dc3.i(vic_l))  (dc4.i(vic_l))  (dc5.i(vic_l))  (dc6.i(vic_l))  (dc7.i(vic_l))  (dc8.i(vic_l))  (dc9.i(vic_l))  (dc10.i(vic_l)) (dc1.i(vic_v))  (dc2.i(vic_v))  (dc3.i(vic_v))  (dc4.i(vic_v))  (dc5.i(vic_v))  (dc6.i(vic_v))  (dc7.i(vic_v))  (dc8.i(vic_v))  (dc9.i(vic_v))  (dc10.i(vic_v))
 1.00000000e-01  1.02412897e-13  1.04542763e-13  1.06611861e-13  1.08640234e-13  1.10638849e-13  1.12616006e-13  1.14571387e-13  1.16539444e-13  1.18486684e-13  1.20407530e-13  1.02742557e-13  1.05210193e-13  1.07605590e-13  1.09958303e-13  1.12308520e-13  1.14598021e-13  1.16918492e-13  1.19208169e-13  1.21474690e-13  1.23727309e-13  1.03211720e-13  1.06145820e-13  1.09011959e-13  1.11840665e-13  1.14641870e-13  1.17416637e-13  1.20186654e-13  1.22943587e-13  1.25688722e-13  1.28425215e-13 
 1.50000000e-01  1.53561465e-13  1.56826488e-13  1.60030749e-13  1.63192136e-13  1.66319896e-13  1.69423076e-13  1.72509069e-13  1.75608139e-13  1.78682923e-13  1.81734862e-13  1.54551202e-13  1.58817368e-13  1.63011443e-13  1.67166708e-13  1.71304529e-13  1.75385103e-13  1.79500598e-13  1.83586574e-13  1.87649230e-13  1.91683971e-13  1.55911136e-13  1.61534482e-13  1.67084749e-13  1.72597006e-13  1.78085437e-13  1.83533479e-13  1.88993160e-13  1.94429981e-13  1.99853245e-13  2.05277903e-13 
 2.00000000e-01  2.25036656e-13  2.49780538e-13  2.74461597e-13  2.99103904e-13  3.23714453e-13  3.48300235e-13  3.72860610e-13  3.97447406e-13  4.22017656e-13  4.46547927e-13  2.41925501e-13  2.83569192e-13  3.25144985e-13  3.66679550e-13  4.08198264e-13  4.49644573e-13  4.91190995e-13  5.32604756e-13  5.74067044e-13  6.15484565e-13  2.61296777e-13  3.22311180e-13  3.83252583e-13  4.44156677e-13  5.05034014e-13  5.65878186e-13  6.26729358e-13  6.87564229e-13  7.48368445e-13  8.09192436e-13 
 2.50000000e-01  4.04471328e-13  5.58651416e-13  7.12763182e-13  8.66845057e-13  1.02089544e-12  1.17491593e-12  1.32891081e-12  1.48294197e-12  1.63692617e-12  1.79091250e-12  5.23386557e-13  7.96490569e-13  1.06951442e-12  1.34250873e-12  1.61550085e-12  1.88840487e-12  2.16140626e-12  2.43427901e-12  2.70720621e-12  2.98013346e-12  6.45961146e-13  1.04163823e-12  1.43724663e-12  1.83281595e-12  2.22835609e-12  2.62387366e-12  3.01937976e-12  3.41488051e-12  3.81034704e-12  4.20583228e-12 
 3.00000000e-01  1.31086616e-12  2.32144475e-12  3.33195965e-12  4.34242898e-12  5.35285320e-12  6.36328298e-12  7.37366343e-12  8.38406577e-12  9.39447612e-12  1.04048680e-11  2.14593152e-12  3.99158948e-12  5.83716890e-12  7.68274340e-12  9.52823337e-12  1.13737570e-11  1.32192312e-11  1.50647467e-11  1.69101868e-11  1.87555232e-11  2.91844501e-12  5.53660608e-12  8.15469832e-12  1.07727425e-11  1.33907754e-11  1.60087737e-11  1.86267588e-11  2.12447481e-11  2.38627105e-11  2.64806892e-11 
 3.50000000e-01  7.02728089e-12  1.37042608e-11  2.03811902e-11  2.70580840e-11  3.37349345e-11  4.04117726e-11  4.70885516e-11  5.37653931e-11  6.04421908e-11  6.71189531e-11  1.28800550e-11  2.54098254e-11  3.79395151e-11  5.04692016e-11  6.29988451e-11  7.55284450e-11  8.80580685e-11  1.00587646e-10  1.13117183e-10  1.25646730e-10  1.77277292e-11  3.51051742e-11  5.24825489e-11  6.98598760e-11  8.72372055e-11  1.04614474e-10  1.21991772e-10  1.39369033e-10  1.56746253e-10  1.74123532e-10 
 4.00000000e-01  4.45692092e-11  8.87381168e-11  1.32906983e-10  1.77075802e-10  2.21244574e-10  2.65413336e-10  3.09582048e-10  3.53750826e-10  3.97919567e-10  4.42088229e-10  8.55185850e-11  1.70636876e-10  2.55755100e-10  3.40873313e-10  4.25991476e-10  5.11109616e-10  5.96227802e-10  6.81345884e-10  7.66463958e-10  8.51582073e-10  1.15789877e-10  2.31179472e-10  3.46568993e-10  4.61958475e-10  5.77347953e-10  6.92737365e-10  8.08126815e-10  9.23516239e-10  1.03890560e-09  1.15429501e-09 
 4.50000000e-01  2.92679690e-10  5.84909078e-10  8.77138426e-10  1.16936773e-09  1.46159699e-09  1.75382622e-09  2.04605539e-09  2.33828467e-09  2.63051388e-09  2.92274304e-09  5.78728393e-10  1.15700646e-09  1.73528447e-09  2.31356243e-09  2.89184038e-09  3.47011824e-09  4.04839628e-09  4.62667408e-09  5.20495187e-09  5.78322972e-09  7.66683417e-10  1.53291652e-09  2.29914952e-09  3.06538247e-09  3.83161542e-09  4.59784831e-09  5.36408111e-09  6.13031402e-09  6.89654684e-09  7.66277962e-09 
 5.00000000e-01  1.93393014e-09  3.86735998e-09  5.80078978e-09  7.73421952e-09  9.66764925e-09  1.16010789e-08  1.35345085e-08  1.54679382e-08  1.74013679e-08  1.93347975e-08  3.92914164e-09  7.85778192e-09  1.17864216e-08  1.57150610e-08  1.96437001e-08  2.35723389e-08  2.75009776e-08  3.14296160e-08  3.53582543e-08  3.92868925e-08  5.08836521e-09  1.01762283e-08  1.52640904e-08  2.03519519e-08  2.54398130e-08  3.05276736e-08  3.56155340e-08  4.07033941e-08  4.57912538e-08  5.08791135e-08 
 5.50000000e-01  1.27916770e-08  2.55828036e-08  3.83739301e-08  5.11650566e-08  6.39561830e-08  7.67473094e-08  8.95384358e-08  1.02329562e-07  1.15120688e-07  1.27911815e-07  2.66890690e-08  5.33775365e-08  8.00659816e-08  1.06754411e-07  1.33442829e-07  1.60131237e-07  1.86819637e-07  2.13508030e-07  2.40196416e-07  2.66884796e-07  3.37815976e-08  6.75625610e-08  1.01343488e-07  1.35124389e-07  1.68905271e-07  2.02686137e-07  2.36466990e-07  2.70247831e-07  3.04028661e-07  3.37809482e-07 
 6.00000000e-01  8.46107179e-08  1.69220833e-07  2.53830946e-07  3.38441058e-07  4.23051170e-07  5.07661281e-07  5.92271392e-07  6.76881502e-07  7.61491612e-07  8.46101722e-07  1.81280023e-07  3.62557083e-07  5.43833109e-07  7.25108427e-07  9.06383199e-07  1.08765753e-06  1.26893147e-06  1.45020509e-06  1.63147841e-06  1.81275146e-06  2.24247692e-07  4.48491086e-07  6.72732863e-07  8.96973533e-07  1.12121335e-06  1.34545247e-06  1.56969099e-06  1.79392900e-06  2.01816654e-06  2.24240367e-06 
 6.50000000e-01  5.59293034e-07  1.11858530e-06  1.67787751e-06  2.23716969e-06  2.79646184e-06  3.35575397e-06  3.91504609e-06  4.47433819e-06  5.03363028e-06  5.59292235e-06  1.23063569e-06  2.46116184e-06  3.69164041e-06  4.92208639e-06  6.15250726e-06  7.38290755e-06  8.61329034e-06  9.84365788e-06  1.10740119e-05  1.23043536e-05  1.48747223e-06  2.97478120e-06  4.46201912e-06  5.94920837e-06  7.43636011e-06  8.92348113e-06  1.04105760e-05  1.18976481e-05  1.33847000e-05  1.48717336e-05 
 7.00000000e-01  3.68220150e-06  7.36439745e-06  1.10465914e-05  1.47287841e-05  1.84109759e-05  2.20931668e-05  2.57753570e-05  2.94575467e-05  3.31397359e-05  3.68219246e-05  8.32674224e-06  1.66485121e-05  2.49681118e-05  3.32862260e-05  4.16031953e-05  4.99192273e-05  5.82344625e-05  6.65490028e-05  7.48629258e-05  8.31762926e-05  9.82396100e-06  1.96408540e-05  2.94546630e-05  3.92663610e-05  4.90764326e-05  5.88851723e-05  6.86927801e-05  7.84994007e-05  8.83051443e-05  9.81100980e-05 
 7.50000000e-01  2.36436390e-05  4.72870971e-05  7.09304826e-05  9.45738200e-05  1.18217121e-04  1.41860393e-04  1.65503640e-04  1.89146866e-04  2.12790073e-04  2.36433264e-04  5.51626557e-05  1.10110708e-04  1.64965754e-04  2.19757323e-04  2.74500083e-04  3.29202946e-04  3.83871940e-04  4.38511434e-04  4.93124750e-04  5.47714500e-04  6.31721939e-05  1.26058516e-04  1.88821120e-04  2.51499337e-04  3.14112697e-04  3.76673056e-04  4.39188436e-04  5.01664649e-04  5.64106111e-04  6.26516299e-04 
 8.00000000e-01  1.33308464e-04  2.66612345e-04  3.99914384e-04  5.33215201e-04  6.66515094e-04  7.99814244e-04  9.33112768e-04  1.06641075e-03  1.19970827e-03  1.33300535e-03  3.25336502e-04  6.44255191e-04  9.60504603e-04  1.27496260e-03  1.58805922e-03  1.90005311e-03  2.21111793e-03  2.52137869e-03  2.83092990e-03  3.13984560e-03  3.54177793e-04  7.00810372e-04  1.04431599e-03  1.38572599e-03  1.72554500e-03  2.06407625e-03  2.40152321e-03  2.73803227e-03  3.07371404e-03  3.40865517e-03 
 8.50000000e-01  5.13515300e-04  1.02698473e-03  1.54043572e-03  2.05387448e-03  2.56730400e-03  3.08072607e-03  3.59414190e-03  4.10755233e-03  4.62095802e-03  5.13435947e-03  1.32260210e-03  2.57272450e-03  3.79498494e-03  4.99908576e-03  6.18965816e-03  7.36943789e-03  8.54023624e-03  9.70334246e-03  1.08597216e-02  1.20101233e-02  1.23227177e-03  2.42387109e-03  3.59841108e-03  4.76144426e-03  5.91637482e-03  7.06327897e-03  8.20423922e-03  9.34002729e-03  1.04712305e-02  1.15983121e-02 
 9.00000000e-01  1.24659811e-03  2.49301862e-03  3.73936779e-03  4.98566958e-03  6.23193562e-03  7.47817284e-03  8.72438588e-03  9.97057804e-03  1.12167518e-02  1.24629092e-02  3.31169730e-03  6.33973078e-03  9.26511887e-03  1.21249560e-02  1.49366180e-02  1.77102389e-02  2.04524628e-02  2.31679815e-02  2.58602832e-02  2.85320622e-02  1.93672284e-03  3.80718780e-03  5.65075772e-03  7.47645226e-03  9.28865462e-03  1.10899835e-02  1.28821913e-02  1.46665343e-02  1.64439587e-02  1.82152039e-02 
 9.50000000e-01  2.24001743e-03  4.47962058e-03  6.71905731e-03  8.95838356e-03  1.11976264e-02  1.34368021e-02  1.56759213e-02  1.79149919e-02  2.01540196e-02  2.23930091e-02  6.01635998e-03  1.14040937e-02  1.65719116e-02  2.16007926e-02  2.65282890e-02  3.13761542e-02  3.61585770e-02  4.08855348e-02  4.55644201e-02  5.02009251e-02  2.76713547e-03  5.43551974e-03  8.06276934e-03  1.06624653e-02  1.32412508e-02  1.58031534e-02  1.83508422e-02  2.08862490e-02  2.34108331e-02  2.59257373e-02 
 1.00000000e+00  3.40077813e-03  6.80080307e-03  1.02005255e-02  1.36000471e-02  1.69994171e-02  2.03986650e-02  2.37978103e-02  2.71968671e-02  3.05958461e-02  3.39947556e-02  9.16000320e-03  1.72567270e-02  2.49887897e-02  3.24918866e-02  3.98285806e-02  4.70349731e-02  5.41345422e-02  6.11437582e-02  6.80747994e-02  7.49370274e-02  3.45256526e-03  6.82827776e-03  1.01686219e-02  1.34843400e-02  1.67808866e-02  2.00616233e-02  2.33288495e-02  2.65842460e-02  2.98290994e-02  3.30644287e-02 
 1.05000000e+00  4.67214727e-03  9.34310291e-03  1.40135800e-02  1.86837394e-02  2.33536590e-02  2.80233854e-02  3.26929495e-02  3.73623738e-02  4.20316749e-02  4.67008660e-02  1.25841050e-02  2.36112167e-02  3.41110316e-02  4.42810553e-02  5.42120154e-02  6.39561374e-02  7.35473224e-02  8.30093164e-02  9.23596556e-02  1.01611805e-01  3.74952414e-03  7.46674838e-03  1.11681492e-02  1.48581752e-02  1.85391328e-02  2.22124664e-02  2.58791777e-02  2.95400071e-02  3.31955274e-02  3.68461966e-02 
 1.10000000e+00  6.02014121e-03  1.20385548e-02  1.80562746e-02  2.40735339e-02  3.00904457e-02  3.61070773e-02  4.21234738e-02  4.81396675e-02  5.41556827e-02  6.01715384e-02  1.61067792e-02  3.02740281e-02  4.36961142e-02  5.66701729e-02  6.93241695e-02  8.17295118e-02  9.39319487e-02  1.05963316e-01  1.17847033e-01  1.29601042e-01  3.84137178e-03  7.66893248e-03  1.14897946e-02  1.53058519e-02  1.91180814e-02  2.29270931e-02  2.67333089e-02  3.05370404e-02  3.43385280e-02  3.81379638e-02 
 1.15000000e+00  7.40185472e-03  1.48015433e-02  2.22003628e-02  2.95986049e-02  3.69964112e-02  4.43938662e-02  5.17910264e-02  5.91879323e-02  6.65846142e-02  7.39811026e-02  1.85564156e-02  3.54609318e-02  5.17156850e-02  6.75311535e-02  8.30157716e-02  9.82285566e-02  1.13210081e-01  1.27989802e-01  1.42590242e-01  1.57028771e-01  3.87434529e-03  7.74117935e-03  1.16045115e-02  1.54653341e-02  1.93241709e-02  2.31813469e-02  2.70370862e-02  3.08915534e-02  3.47448751e-02  3.85976058e-02 
 1.20000000e+00  8.54818574e-03  1.70938539e-02  2.56385283e-02  3.41825380e-02  4.27260462e-02  5.12692251e-02  5.98120052e-02  6.83544934e-02  7.68967246e-02  8.54387262e-02  2.06591887e-02  3.96062062e-02  5.78690156e-02  7.56871364e-02  9.31750958e-02  1.10399334e-01  1.27406041e-01  1.44226292e-01  1.60883757e-01  1.77396777e-01  3.88952260e-03  7.77426039e-03  1.16567722e-02  1.55377127e-02  1.94174164e-02  2.32961143e-02  2.71739054e-02  3.10509128e-02  3.49272166e-02  3.88028811e-02 
 1.25000000e+00  9.57806816e-03  1.91519015e-02  2.87240420e-02  3.82950606e-02  4.78652325e-02  5.74347256e-02  6.70036466e-02  7.65720752e-02  8.61400708e-02  9.57076795e-02  2.25142417e-02  4.34245689e-02  6.36200723e-02  8.33410181e-02  1.02706381e-01  1.21787468e-01  1.40632098e-01  1.59274376e-01  1.77739921e-01  1.96048676e-01  3.89785231e-03  7.79228469e-03  1.16851411e-02  1.55768922e-02  1.94677767e-02  2.33579417e-02  2.72474880e-02  3.11364893e-02  3.50250022e-02  3.89130716e-02 
 1.30000000e+00  1.06058206e-02  2.12044910e-02  3.18003105e-02  4.23942428e-02  5.29867532e-02  6.35781192e-02  7.41685262e-02  8.47581067e-02  9.53469602e-02  1.05935165e-01  2.39135824e-02  4.65596038e-02  6.85488472e-02  9.00781344e-02  1.11252338e-01  1.32137290e-01  1.52778311e-01  1.73208533e-01  1.93453250e-01  2.13532404e-01  3.90299748e-03  7.80336823e-03  1.17025389e-02  1.56008710e-02  1.94985475e-02  2.33956809e-02  2.72923481e-02  3.11886054e-02  3.50844957e-02  3.89800532e-02 
 1.35000000e+00  1.16107918e-02  2.32104685e-02  3.48057268e-02  4.63980634e-02  5.79882006e-02  6.95765688e-02  8.11634548e-02  9.27490640e-02  1.04333551e-01  1.15917036e-01  2.48149128e-02  4.87618429e-02  7.22028560e-02  9.52644165e-02  1.18019103e-01  1.40515226e-01  1.62787619e-01  1.84862728e-01  2.06761372e-01  2.28500393e-01  3.90644986e-03  7.81078228e-03  1.17141535e-02  1.56168550e-02  1.95190340e-02  2.34207809e-02  2.73221573e-02  3.12232083e-02  3.51239683e-02  3.90244648e-02 
 1.40000000e+00  1.25444447e-02  2.50732712e-02  3.75959094e-02  5.01144602e-02  6.26299367e-02  7.51429420e-02  8.76538779e-02  1.00163032e-01  1.12670620e-01  1.25176810e-01  2.53549563e-02  5.01437518e-02  7.45876152e-02  9.87610685e-02  1.22707337e-01  1.46455844e-01  1.70028372e-01  1.93441914e-01  2.16710206e-01  2.39844644e-01  3.90891044e-03  7.81605385e-03  1.17223991e-02  1.56281896e-02  1.95335479e-02  2.34385491e-02  2.73432446e-02  3.12476719e-02  3.51518594e-02  3.90558299e-02 
 1.45000000e+00  1.33494234e-02  2.66793529e-02  4.00015789e-02  5.33187216e-02  6.66320436e-02  7.99422958e-02  9.32499785e-02  1.06555449e-01  1.19858977e-01  1.33160771e-01  2.56836512e-02  5.09888813e-02  7.60647661e-02  1.00958705e-01  1.25697449e-01  1.50298918e-01  1.74776271e-01  1.99139741e-01  2.23397610e-01  2.47556772e-01  3.91074562e-03  7.81997801e-03  1.17285297e-02  1.56366091e-02  1.95443209e-02  2.34517295e-02  2.73588786e-02  3.12658002e-02  3.51725187e-02  3.90790533e-02 
 1.50000000e+00  1.39797589e-02  2.79383298e-02  4.18885333e-02  5.58332166e-02  6.97737515e-02  8.37054000e-02  9.76388687e-02  1.11569934e-01  1.25498888e-01  1.39425959e-01  2.58970704e-02  5.15303939e-02  7.70075881e-02  1.02361397e-01  1.27609833e-01  1.52732800e-01  1.77795828e-01  2.02780436e-01  2.27691945e-01  2.52534743e-01  3.91216633e-03  7.82301116e-03  1.17332636e-02  1.56431056e-02  1.95526285e-02  2.34618673e-02  2.73708983e-02  3.12797321e-02  3.51883900e-02  3.90968887e-02 
 1.55000000e+00  1.44253167e-02  2.88303359e-02  4.32273263e-02  5.76139825e-02  7.20004391e-02  8.63836954e-02  1.00764273e-01  1.15142543e-01  1.29518787e-01  1.43893223e-01  2.60392530e-02  5.18835626e-02  7.76157990e-02  1.03250042e-01  1.28816508e-01  1.54317146e-01  1.79758211e-01  2.05144442e-01  2.30479595e-01  2.55766740e-01  3.91329193e-03  7.82541084e-03  1.17370055e-02  1.56482294e-02  1.95591772e-02  2.34698927e-02  2.73804099e-02  3.12907533e-02  3.52009416e-02  3.91109898e-02 
 1.60000000e+00  1.47203252e-02  2.94228073e-02  4.41182122e-02  5.88086109e-02  7.34957399e-02  8.81718202e-02  1.02852414e-01  1.17530972e-01  1.32207740e-01  1.46882912e-01  2.61408992e-02  5.21312734e-02  7.80373257e-02  1.03877705e-01  1.29663894e-01  1.55395346e-01  1.81088579e-01  2.06742073e-01  2.32358662e-01  2.57940648e-01  3.91420741e-03  7.82736019e-03  1.17400428e-02  1.56524003e-02  1.95645057e-02  2.34763964e-02  2.73881155e-02  3.12996792e-02  3.52111044e-02  3.91224045e-02 
