 v-sweep         (dc1.i(vib_v))  (dc2.i(vib_v))  (dc3.i(vib_v))  (dc4.i(vib_v))  (dc5.i(vib_v))  (dc6.i(vib_v))  (dc7.i(vib_v))  (dc8.i(vib_v))  (dc9.i(vib_v))  (dc1.i(vic_v))  (dc2.i(vic_v))  (dc3.i(vic_v))  (dc4.i(vic_v))  (dc5.i(vic_v))  (dc6.i(vic_v))  (dc7.i(vic_v))  (dc8.i(vic_v))  (dc9.i(vic_v))  dc1.i(vic_v)/dc1.i(vib_v) dc2.i(vic_v)/dc2.i(vib_v) dc3.i(vic_v)/dc3.i(vib_v) dc4.i(vic_v)/dc4.i(vib_v) dc5.i(vic_v)/dc5.i(vib_v) dc6.i(vic_v)/dc6.i(vib_v) dc7.i(vic_v)/dc7.i(vib_v) dc8.i(vic_v)/dc8.i(vib_v) dc9.i(vic_v)/dc9.i(vib_v)
 1.00000000e-01  2.00470373e-13  2.00673790e-13  2.00879730e-13  2.01074943e-13  2.01296238e-13  2.01486398e-13  2.01667888e-13  2.01862528e-13  2.02078354e-13  1.00158545e-13  1.00230738e-13  1.00301367e-13  1.00372215e-13  1.00441933e-13  1.00513734e-13  1.00578330e-13  1.00645487e-13  1.00710645e-13  4.99617690e-01  4.99470994e-01  4.99310544e-01  4.99178134e-01  4.98975707e-01  4.98861141e-01  4.98732500e-01  4.98584300e-01  4.98374238e-01 
 1.50000000e-01  3.01017397e-13  3.01502334e-13  3.01936419e-13  3.02391426e-13  3.02835486e-13  3.03259804e-13  3.03701854e-13  3.04156076e-13  3.04548875e-13  1.50296205e-13  1.50421750e-13  1.50541043e-13  1.50660770e-13  1.50775983e-13  1.50890848e-13  1.51004672e-13  1.51111376e-13  1.51223983e-13  4.99294083e-01  4.98907414e-01  4.98585243e-01  4.98230958e-01  4.97880832e-01  4.97562967e-01  4.97213534e-01  4.96821822e-01  4.96550785e-01 
 2.00000000e-01  4.04374722e-13  4.06322996e-13  4.08231707e-13  4.10154366e-13  4.12017293e-13  4.13906236e-13  4.15644173e-13  4.17505582e-13  4.19301319e-13  2.04148554e-13  2.05746344e-13  2.07244634e-13  2.08675639e-13  2.10052292e-13  2.11380584e-13  2.12676232e-13  2.13937933e-13  2.15169589e-13  5.04849940e-01  5.06361554e-01  5.07664228e-01  5.08773420e-01  5.09814261e-01  5.10696784e-01  5.11678607e-01  5.12419337e-01  5.13162205e-01 
 2.50000000e-01  5.12737924e-13  5.18593406e-13  5.24202173e-13  5.29747455e-13  5.35190117e-13  5.40611949e-13  5.45951403e-13  5.51312459e-13  5.56556213e-13  2.82812957e-13  2.95391326e-13  3.07152698e-13  3.18331493e-13  3.29081386e-13  3.39467928e-13  3.49574034e-13  3.59420541e-13  3.69055203e-13  5.51574097e-01  5.69601007e-01  5.85943199e-01  6.00911792e-01  6.14886888e-01  6.27932713e-01  6.40302474e-01  6.51936185e-01  6.63104992e-01 
 3.00000000e-01  6.37254624e-13  6.54202289e-13  6.70724961e-13  6.87008685e-13  7.02922754e-13  7.18727560e-13  7.34339602e-13  7.49781413e-13  7.65107622e-13  5.64523273e-13  6.65883177e-13  7.60579997e-13  8.50607516e-13  9.37087135e-13  1.02070700e-12  1.10198927e-12  1.18122826e-12  1.25872873e-12  8.85867675e-01  1.01785516e+00  1.13396704e+00  1.23813212e+00  1.33312961e+00  1.42015843e+00  1.50065347e+00  1.57543017e+00  1.64516559e+00 
 3.50000000e-01  8.09870727e-13  8.59828607e-13  9.08572806e-13  9.56411106e-13  1.00359780e-12  1.05004010e-12  1.09602254e-12  1.14170147e-12  1.18694787e-12  2.48755900e-12  3.30659414e-12  4.07172588e-12  4.79911513e-12  5.49778811e-12  6.17341621e-12  6.82997746e-12  7.47025711e-12  8.09641704e-12  3.07155071e+00  3.84564333e+00  4.48145251e+00  5.01783710e+00  5.47807906e+00  5.87921946e+00  6.23160312e+00  6.54309142e+00  6.82120694e+00 
 4.00000000e-01  1.13317316e-12  1.28474768e-12  1.43252713e-12  1.57757902e-12  1.72039384e-12  1.86145953e-12  2.00106092e-12  2.13934941e-12  2.27646032e-12  1.76781480e-11  2.42984798e-11  3.04830238e-11  3.63624746e-11  4.20097218e-11  4.74708782e-11  5.27776567e-11  5.79530184e-11  6.30143675e-11  1.56005707e+01  1.89130365e+01  2.12791947e+01  2.30495424e+01  2.44186655e+01  2.55019663e+01  2.63748376e+01  2.70890852e+01  2.76808548e+01 
 4.50000000e-01  1.98086147e-12  2.47272425e-12  2.95214530e-12  3.42263610e-12  3.88614785e-12  4.34370566e-12  4.79640156e-12  5.24487433e-12  5.68967473e-12  1.40111973e-10  1.93625117e-10  2.43615636e-10  2.91140080e-10  3.36787475e-10  3.80930747e-10  4.23826048e-10  4.65659202e-10  5.06570906e-10  7.07328481e+01  7.83043712e+01  8.25215603e+01  8.50631126e+01  8.66635772e+01  8.76971822e+01  8.83633370e+01  8.87836720e+01  8.90333684e+01 
 5.00000000e-01  5.02364147e-12  6.85470334e-12  8.63959687e-12  1.03910540e-11  1.21162996e-11  1.38200160e-11  1.55052326e-11  1.71749962e-11  1.88306788e-11  1.12936179e-09  1.56189866e-09  1.96596268e-09  2.35009400e-09  2.71905316e-09  3.07585511e-09  3.42256960e-09  3.76069926e-09  4.09138108e-09  2.24809393e+02  2.27857951e+02  2.27552595e+02  2.26165122e+02  2.24412836e+02  2.22565235e+02  2.20736424e+02  2.18963616e+02  2.17272098e+02 
 5.50000000e-01  1.96157375e-11  2.80417088e-11  3.62554731e-11  4.43150838e-11  5.22538971e-11  6.00932895e-11  6.78491582e-11  7.55326155e-11  8.31518030e-11  9.12432696e-09  1.26202145e-08  1.58859770e-08  1.89906378e-08  2.19726731e-08  2.48564504e-08  2.76586979e-08  3.03915608e-08  3.30642282e-08  4.65153398e+02  4.50051549e+02  4.38167692e+02  4.28536655e+02  4.20498266e+02  4.13631049e+02  4.07649832e+02  4.02363411e+02  3.97636936e+02 
 6.00000000e-01  1.07466726e-10  1.55826074e-10  2.02967658e-10  2.49224022e-10  2.94786752e-10  3.39781047e-10  3.84294012e-10  4.28390590e-10  4.72120336e-10  7.37332977e-08  1.01985124e-07  1.28377244e-07  1.53467453e-07  1.77566686e-07  2.00871863e-07  2.23518171e-07  2.45603757e-07  2.67202883e-07  6.86103508e+02  6.54480482e+02  6.32500988e+02  6.15781143e+02  6.02356396e+02  5.91180306e+02  5.81633239e+02  5.73317349e+02  5.65963511e+02 
 6.50000000e-01  7.12567673e-10  1.03626129e-09  1.35180706e-09  1.66142910e-09  1.96641084e-09  2.26758692e-09  2.56554329e-09  2.86071271e-09  3.15342792e-09  5.95668602e-07  8.23923323e-07  1.03715535e-06  1.23987034e-06  1.43457997e-06  1.62287494e-06  1.80584727e-06  1.98428983e-06  2.15880250e-06  8.35946710e+02  7.95092256e+02  7.67236231e+02  7.46267382e+02  7.29542340e+02  7.15683671e+02  7.03884934e+02  6.93634781e+02  6.84589138e+02 
 7.00000000e-01  5.14740906e-09  7.49016601e-09  9.77411436e-09  1.20152984e-08  1.42229779e-08  1.64031757e-08  1.85601190e-08  2.06969327e-08  2.28160207e-08  4.80336790e-06  6.64496777e-06  8.36551864e-06  1.00013126e-05  1.15725839e-05  1.30921489e-05  1.45688072e-05  1.60089477e-05  1.74174051e-05  9.33162265e+02  8.87158944e+02  8.55885079e+02  8.32381540e+02  8.13654073e+02  7.98147211e+02  7.84952250e+02  7.73493731e+02  7.63384873e+02 
 7.50000000e-01  3.81369027e-08  5.55476998e-08  7.25311264e-08  8.92032117e-08  1.05631050e-07  1.21858345e-07  1.37915799e-07  1.53826138e-07  1.69606850e-07  3.82098190e-05  5.29212473e-05  6.66756158e-05  7.97590281e-05  9.23312056e-05  1.04493412e-04  1.16315223e-04  1.27847190e-04  1.39127581e-04  1.00191196e+03  9.52717170e+02  9.19268997e+02  8.94127315e+02  8.74091528e+02  8.57499019e+02  8.43378523e+02  8.31114862e+02  8.20294587e+02 
 8.00000000e-01  2.66593794e-07  3.90540112e-07  5.11918774e-07  6.31402823e-07  7.49386673e-07  8.66129792e-07  9.81815873e-07  1.09658178e-06  1.21053340e-06  2.76662456e-04  3.86046704e-04  4.88824674e-04  5.86932700e-04  6.81460933e-04  7.73104870e-04  8.62344751e-04  9.49530921e-04  1.03492953e-03  1.03776780e+03  9.88494374e+02  9.54887181e+02  9.29569331e+02  9.09358223e+02  8.92597018e+02  8.78316163e+02  8.65900690e+02  8.54936785e+02 
 8.50000000e-01  1.39355227e-06  2.07605956e-06  2.75336879e-06  3.42659476e-06  4.09643733e-06  4.76338070e-06  5.42778153e-06  6.08991432e-06  6.74999740e-06  1.36964834e-03  1.95227269e-03  2.50903111e-03  3.04707035e-03  3.57050396e-03  4.08200115e-03  4.58343056e-03  5.07617136e-03  5.56128186e-03  9.82846761e+02  9.40374122e+02  9.11258646e+02  8.89241526e+02  8.71612007e+02  8.56954630e+02  8.44439029e+02  8.33537402e+02  8.23893927e+02 
 9.00000000e-01  1.00034257e-05  1.51524446e-05  2.03330725e-05  2.55351264e-05  3.07230632e-05  3.59557375e-05  4.11970783e-05  4.64446525e-05  5.16966937e-05  2.68706376e-03  3.89619923e-03  5.07051915e-03  6.21945204e-03  7.34883069e-03  8.46100032e-03  9.55934263e-03  1.06457525e-02  1.17216866e-02  2.68614355e+02  2.57133377e+02  2.49372993e+02  2.43564568e+02  2.39195898e+02  2.35317112e+02  2.32039334e+02  2.29213740e+02  2.26739580e+02 
 9.50000000e-01  5.98450915e-05  9.18531699e-05  1.24413903e-04  1.57376085e-04  1.90651130e-04  2.24183081e-04  2.57930632e-04  2.91863769e-04  3.25959388e-04  3.84880631e-03  5.59498295e-03  7.29425124e-03  8.95919211e-03  1.05971194e-02  1.22127935e-02  1.38095875e-02  1.53899979e-02  1.69559493e-02  6.43128151e+01  6.09122468e+01  5.86289078e+01  5.69285488e+01  5.55838268e+01  5.44768743e+01  5.35399283e+01  5.27300731e+01  5.20185947e+01 
 1.00000000e+00  2.92021377e-04  4.52794407e-04  6.17368482e-04  7.84651284e-04  9.54009838e-04  1.12503996e-03  1.29745237e-03  1.47103679e-03  1.64563258e-03  5.03067965e-03  7.29362722e-03  9.49016366e-03  1.16381651e-02  1.37480153e-02  1.58264771e-02  1.78783327e-02  1.99071201e-02  2.19155657e-02  1.72270938e+01  1.61080329e+01  1.53719601e+01  1.48322769e+01  1.44107689e+01  1.40674800e+01  1.37795676e+01  1.35327140e+01  1.33174112e+01 
 1.05000000e+00  1.20334630e-03  1.85082911e-03  2.50660798e-03  3.16747811e-03  3.83172872e-03  4.49832428e-03  5.16658605e-03  5.83604384e-03  6.50635839e-03  5.66354247e-03  8.17407228e-03  1.06031242e-02  1.29731246e-02  1.52969850e-02  1.75830872e-02  1.98373016e-02  2.20639631e-02  2.42664000e-02  4.70649426e+00  4.41643815e+00  4.23006882e+00  4.09572667e+00  3.99218895e+00  3.90880828e+00  3.83953763e+00  3.78063697e+00  3.72964391e+00 
 1.10000000e+00  3.27788812e-03  4.94787111e-03  6.61316279e-03  8.27232122e-03  9.92499529e-03  1.15712089e-02  1.32111287e-02  1.48449742e-02  1.64729799e-02  5.84996967e-03  8.43006531e-03  1.09242865e-02  1.33564611e-02  1.57402620e-02  1.80845434e-02  2.03954953e-02  2.26776813e-02  2.49346009e-02  1.78467643e+00  1.70377626e+00  1.65190044e+00  1.61459653e+00  1.58592136e+00  1.56289145e+00  1.54381171e+00  1.52763359e+00  1.51366669e+00 
 1.15000000e+00  6.21793569e-03  9.27963984e-03  1.23041677e-02  1.52982949e-02  1.82658039e-02  2.12095952e-02  2.41319659e-02  2.70347776e-02  2.99195743e-02  5.90616845e-03  8.50799889e-03  1.10229508e-02  1.34750840e-02  1.58782687e-02  1.82414815e-02  2.05709948e-02  2.28714317e-02  2.51463359e-02  9.49860009e-01  9.16845808e-01  8.95871307e-01  8.80822607e-01  8.69289343e-01  8.60057975e-01  8.52437589e-01  8.46000365e-01  8.40464362e-01 
 1.20000000e+00  9.62441800e-03  1.42690328e-02  1.88380731e-02  2.33456889e-02  2.78012702e-02  3.22115541e-02  3.65816360e-02  4.09155178e-02  4.52164342e-02  5.92895262e-03  8.54028683e-03  1.10642163e-02  1.35250576e-02  1.59367494e-02  1.83083108e-02  2.06460435e-02  2.29545911e-02  2.52375127e-02  6.16032327e-01  5.98518971e-01  5.87332699e-01  5.79338551e-01  5.73238174e-01  5.68377135e-01  5.64382728e-01  5.61024089e-01  5.58149113e-01 
 1.25000000e+00  1.32873713e-02  1.96273470e-02  2.58469294e-02  3.19706169e-02  3.80141452e-02  4.39885693e-02  4.99021237e-02  5.57612014e-02  6.15709219e-02  5.94062422e-03  8.55687084e-03  1.10855348e-02  1.35509892e-02  1.59672037e-02  1.83432168e-02  2.06853430e-02  2.29982354e-02  2.52854602e-02  4.47087996e-01  4.35966759e-01  4.28891749e-01  4.23857607e-01  4.20033216e-01  4.16999622e-01  4.14518291e-01  4.12441534e-01  4.10672107e-01 
 1.30000000e+00  1.71080204e-02  2.52121679e-02  3.31484538e-02  4.09524289e-02  4.86465849e-02  5.62465637e-02  6.37639290e-02  7.12076061e-02  7.85847082e-02  5.94750961e-03  8.56670802e-03  1.10982283e-02  1.35664743e-02  1.59854319e-02  1.83641503e-02  2.07089508e-02  2.30244917e-02  2.53143428e-02  3.47644524e-01  3.39784664e-01  3.34803801e-01  3.31273984e-01  3.28603374e-01  3.26493728e-01  3.24775326e-01  3.23343150e-01  3.22128100e-01 
 1.35000000e+00  2.10331620e-02  3.09476765e-02  4.06452288e-02  5.01728501e-02  5.95600393e-02  6.88271896e-02  7.79893110e-02  8.70579482e-02  9.60422754e-02  5.95199194e-03  8.57313625e-03  1.11065449e-02  1.35766401e-02  1.59974179e-02  1.83779336e-02  2.07245131e-02  2.30418173e-02  2.53334186e-02  2.82981320e-01  2.77020352e-01  2.73255810e-01  2.70597345e-01  2.68593139e-01  2.67015604e-01  2.65735301e-01  2.64672184e-01  2.63773619e-01 
 1.40000000e+00  2.50319972e-02  3.67897836e-02  4.82804251e-02  5.95627143e-02  7.06733222e-02  8.16375026e-02  9.24737888e-02  1.03196402e-01  1.13816624e-01  5.95511957e-03  8.57763411e-03  1.11123752e-02  1.35837772e-02  1.60058428e-02  1.83876315e-02  2.07354718e-02  2.30540268e-02  2.53468703e-02  2.37900297e-01  2.33152611e-01  2.30163160e-01  2.28058397e-01  2.26476446e-01  2.25235105e-01  2.24230801e-01  2.23399520e-01  2.22699193e-01 
 1.45000000e+00  2.90853328e-02  4.27109152e-02  5.60184113e-02  6.90785706e-02  8.19353509e-02  9.46189429e-02  1.07151457e-01  1.19549833e-01  1.31827488e-01  5.95741646e-03  8.58094427e-03  1.11166723e-02  1.35890433e-02  1.60120647e-02  1.83947989e-02  2.07435763e-02  2.30630614e-02  2.53568291e-02  2.04825453e-01  2.00907525e-01  1.98446761e-01  1.96718652e-01  1.95423154e-01  1.94409262e-01  1.93591172e-01  1.92915881e-01  1.92348572e-01 
 1.50000000e+00  3.31804921e-02  4.86928072e-02  6.38355389e-02  7.86915353e-02  9.33121254e-02  1.07732492e-01  1.21978363e-01  1.36069425e-01  1.50021255e-01  5.95917049e-03  8.58347636e-03  1.11199632e-02  1.35930799e-02  1.60168374e-02  1.84003001e-02  2.07498000e-02  2.30700025e-02  2.53644833e-02  1.79598617e-01  1.76278117e-01  1.74197059e-01  1.72738781e-01  1.71647975e-01  1.70796198e-01  1.70110497e-01  1.69545822e-01  1.69072598e-01 
 1.55000000e+00  3.73087011e-02  5.47227892e-02  7.17153752e-02  8.83815128e-02  1.04779966e-01  1.20950951e-01  1.36923844e-01  1.52721100e-01  1.68360475e-01  5.96055181e-03  8.58547319e-03  1.11225609e-02  1.35962686e-02  1.60206098e-02  1.84046506e-02  2.07547239e-02  2.30754961e-02  2.53705433e-02  1.59763048e-01  1.56890270e-01  1.55093114e-01  1.53836115e-01  1.52897643e-01  1.52166233e-01  1.51578595e-01  1.51095664e-01  1.50691802e-01 
 1.60000000e+00  4.14635143e-02  6.07915374e-02  7.96458129e-02  9.81336829e-02  1.16321395e-01  1.34254232e-01  1.51965241e-01  1.69479664e-01  1.86817448e-01  5.96166827e-03  8.58708902e-03  1.11246646e-02  1.35988526e-02  1.60236683e-02  1.84081792e-02  2.07587191e-02  2.30799548e-02  2.53754631e-02  1.43781066e-01  1.41254678e-01  1.39676704e-01  1.38574770e-01  1.37753406e-01  1.37114331e-01  1.36601758e-01  1.36181264e-01  1.35830263e-01 
