 v-sweep         (dc1.i(vib_l))  (dc2.i(vib_l))  (dc3.i(vib_l))  (dc4.i(vib_l))  (dc1.i(vic_l))  (dc2.i(vic_l))  (dc3.i(vic_l))  (dc4.i(vic_l))  dc1.i(vic_l)/dc1.i(vib_l) dc2.i(vic_l)/dc2.i(vib_l) dc3.i(vic_l)/dc3.i(vib_l) dc4.i(vic_l)/dc4.i(vib_l)
 1.00000000e-01  2.00814645e-13  2.01626847e-13  2.02447950e-13  2.03255717e-13  1.01119718e-13  1.02106926e-13  1.03142807e-13  1.04336802e-13  5.03547529e-01  5.06415328e-01  5.09478149e-01  5.13327758e-01 
 1.50000000e-01  3.01736147e-13  3.03470867e-13  3.05210312e-13  3.06935721e-13  1.51890039e-13  1.53595500e-13  1.55502233e-13  1.57899283e-13  5.03386951e-01  5.06129307e-01  5.09492068e-01  5.14437622e-01 
 2.00000000e-01  4.06480128e-13  4.12942799e-13  4.19445988e-13  4.25938820e-13  2.17858475e-13  2.34484661e-13  2.54734793e-13  2.83084181e-13  5.35963409e-01  5.67838115e-01  6.07312505e-01  6.64612306e-01 
 2.50000000e-01  5.17420125e-13  5.34771485e-13  5.52340444e-13  5.69767411e-13  3.66756122e-13  4.75746549e-13  6.09552280e-13  7.98496466e-13  7.08816886e-01  8.89625872e-01  1.10358075e+00  1.40144285e+00 
 3.00000000e-01  6.47082213e-13  6.93662047e-13  7.41624888e-13  7.88791095e-13  1.08867774e-12  1.82522134e-12  2.73049268e-12  4.01061781e-12  1.68244115e+00  2.63128327e+00  3.68177056e+00  5.08451203e+00 
 3.50000000e-01  8.30822790e-13  9.58386157e-13  1.09496744e-12  1.22631740e-12  5.70379082e-12  1.07040020e-11  1.68507099e-11  2.55444328e-11  6.86523153e+00  1.11687777e+01  1.53892338e+01  2.08301968e+01 
 4.00000000e-01  1.18826911e-12  1.55551161e-12  1.98111871e-12  2.37262111e-12  3.67694291e-11  7.07372750e-11  1.12494682e-10  1.71556839e-10  3.09436884e+01  4.54752473e+01  5.67834133e+01  7.23068837e+01 
 4.50000000e-01  2.20671028e-12  3.37738602e-12  4.92583002e-12  6.25354835e-12  2.47536850e-10  4.78308127e-10  7.62001327e-10  1.16326186e-09  1.12174603e+02  1.41620805e+02  1.54695011e+02  1.86016289e+02 
 5.00000000e-01  6.28538985e-12  1.06901825e-11  1.75406785e-11  2.29619709e-11  1.67913080e-09  3.24691834e-09  5.17424085e-09  7.90027671e-09  2.67148234e+02  3.03728989e+02  2.94985217e+02  3.44059172e+02 
 5.50000000e-01  2.69709715e-11  4.71411867e-11  8.31437756e-11  1.09893964e-10  1.14040286e-08  2.20544827e-08  3.51473200e-08  5.36658603e-08  4.22826023e+02  4.67838939e+02  4.22729419e+02  4.88342201e+02 
 6.00000000e-01  1.46733475e-10  2.55361903e-10  4.66473391e-10  6.17679451e-10  7.74578431e-08  1.49798802e-07  2.38726935e-07  3.64498806e-07  5.27881202e+02  5.86613747e+02  5.11769674e+02  5.90109976e+02 
 6.50000000e-01  8.85410206e-10  1.53060727e-09  2.83877207e-09  3.75879189e-09  5.25832877e-07  1.01686670e-06  1.62038938e-06  2.47357566e-06  5.93886171e+02  6.64355068e+02  5.70806439e+02  6.58077312e+02 
 7.00000000e-01  5.55801400e-09  9.56798720e-09  1.78491415e-08  2.36033187e-08  3.55813978e-06  6.87781413e-06  1.09533868e-05  1.66976441e-05  6.40181867e+02  7.18836051e+02  6.13664631e+02  7.07427811e+02 
 7.50000000e-01  3.49307234e-08  5.98538913e-08  1.11565779e-07  1.46375341e-07  2.35825624e-05  4.54560010e-05  7.21165662e-05  1.08977460e-04  6.75123790e+02  7.59449385e+02  6.46404004e+02  7.44506957e+02 
 8.00000000e-01  2.02616887e-07  3.41836305e-07  6.27544548e-07  7.95176198e-07  1.39401117e-04  2.65053172e-04  4.13141310e-04  6.00972873e-04  6.88003450e+02  7.75380402e+02  6.58345788e+02  7.55773217e+02 
 8.50000000e-01  8.84712154e-07  1.43588575e-06  2.54202897e-06  3.00370541e-06  5.69999882e-04  1.05080326e-03  1.57912511e-03  2.14062850e-03  6.44277214e+02  7.31815366e+02  6.21206575e+02  7.12662597e+02 
 9.00000000e-01  2.59897666e-06  4.02908606e-06  6.87767848e-06  7.62665173e-06  1.43646085e-03  2.57424252e-03  3.75334991e-03  4.82042111e-03  5.52702482e+02  6.38914752e+02  5.45729191e+02  6.32049461e+02 
 9.50000000e-01  5.70031792e-06  8.50446983e-06  1.41315668e-05  1.49831459e-05  2.62280693e-03  4.61592980e-03  6.61201237e-03  8.23401261e-03  4.60115903e+02  5.42765145e+02  4.67889547e+02  5.49551654e+02 
 1.00000000e+00  1.04136926e-05  1.50869988e-05  2.45853137e-05  2.52463211e-05  4.00791358e-03  6.97287294e-03  9.88282745e-03  1.20846862e-02  3.84869586e+02  4.62177603e+02  4.01980938e+02  4.78671176e+02 
 1.05000000e+00  1.68915230e-05  2.39281657e-05  3.84309221e-05  3.85461630e-05  5.52113696e-03  9.53100986e-03  1.34159966e-02  1.62143170e-02  3.26858446e+02  3.98317614e+02  3.49093799e+02  4.20646720e+02 
 1.10000000e+00  2.57128563e-05  3.51497448e-05  5.58075364e-05  5.49785306e-05  7.10624537e-03  1.22258407e-02  1.71279760e-02  2.05350046e-02  2.76369349e+02  3.47821607e+02  3.06911523e+02  3.73509520e+02 
 1.15000000e+00  6.00621441e-05  5.67840019e-05  7.81661955e-05  7.47793811e-05  8.29709731e-03  1.48070846e-02  2.09339770e-02  2.49890753e-02  1.38141877e+02  2.60761554e+02  2.67813687e+02  3.34170663e+02 
 1.20000000e+00  1.53547818e-04  1.36343949e-04  1.54082907e-04  1.18572063e-04  9.28572901e-03  1.67395146e-02  2.40025506e-02  2.90930010e-02  6.04745096e+01  1.22774166e+02  1.55776855e+02  2.45361345e+02 
 1.25000000e+00  3.50111662e-04  3.12673521e-04  3.47434424e-04  2.56265670e-04  1.01798432e-02  1.85356887e-02  2.65768765e-02  3.23315810e-02  2.90759901e+01  5.92812868e+01  7.64946553e+01  1.26164308e+02 
 1.30000000e+00  7.12414887e-04  6.49495826e-04  7.22079827e-04  5.31914891e-04  1.08819079e-02  2.01810695e-02  2.89956944e-02  3.54173123e-02  1.52746779e+01  3.10719003e+01  4.01558018e+01  6.65845473e+01 
 1.35000000e+00  1.27862553e-03  1.23548139e-03  1.37725960e-03  1.01399447e-03  1.13462494e-02  2.15243450e-02  3.11171007e-02  3.83631479e-02  8.87378610e+00  1.74218286e+01  2.25934897e+01  3.78336856e+01 
 1.40000000e+00  2.02414201e-03  2.13800897e-03  2.41945450e-03  1.80134644e-03  1.16229863e-02  2.24740173e-02  3.27749233e-02  4.09991596e-02  5.74217927e+00  1.05116571e+01  1.35464103e+01  2.27602856e+01 
 1.45000000e+00  2.89423562e-03  3.34233319e-03  3.88986986e-03  3.00401836e-03  1.17873860e-02  2.30764218e-02  3.39277418e-02  4.31503716e-02  4.07271125e+00  6.90428526e+00  8.72207633e+00  1.43642170e+01 
 1.50000000e+00  3.84224811e-03  4.77284800e-03  5.73029771e-03  4.68519743e-03  1.18914876e-02  2.34475936e-02  3.46762457e-02  4.47392822e-02  3.09492966e+00  4.91270487e+00  6.05138641e+00  9.54907084e+00 
 1.55000000e+00  4.84496835e-03  6.35461718e-03  7.83373385e-03  6.81316052e-03  1.19590230e-02  2.36831159e-02  3.51645636e-02  4.58297251e-02  2.46833873e+00  3.72691465e+00  4.48886371e+00  6.72664689e+00 
 1.60000000e+00  5.88263495e-03  8.03600591e-03  1.01274881e-02  9.29104075e-03  1.20064007e-02  2.38401621e-02  3.54835284e-02  4.65591389e-02  2.04099027e+00  2.96666807e+00  3.50368501e+00  5.01118660e+00 
