 v-sweep         (dc1.i(vib_l))  (dc2.i(vib_l))  (dc3.i(vib_l))  (dc4.i(vib_l))  (dc1.i(vic_l))  (dc2.i(vic_l))  (dc3.i(vic_l))  (dc4.i(vic_l))  dc1.i(vic_l)/dc1.i(vib_l) dc2.i(vic_l)/dc2.i(vib_l) dc3.i(vic_l)/dc3.i(vib_l) dc4.i(vic_l)/dc4.i(vib_l)
 1.00000000e-01  2.02443280e-13  2.03445643e-13  2.04400573e-13  2.05323406e-13  1.03194822e-13  1.04687446e-13  1.06154975e-13  1.07605590e-13  5.09746839e-01  5.14572073e-01  5.19347738e-01  5.24078534e-01 
 1.50000000e-01  3.05205090e-13  3.07344250e-13  3.09385710e-13  3.11350486e-13  1.55652354e-13  1.58165136e-13  1.60614311e-13  1.63011443e-13  5.09992654e-01  5.14618824e-01  5.19139399e-01  5.23562515e-01 
 2.00000000e-01  4.19438046e-13  4.27427977e-13  4.35033940e-13  4.42355371e-13  2.57124436e-13  2.80813189e-13  3.03381637e-13  3.25144985e-13  6.13021252e-01  6.56983642e-01  6.97374640e-01  7.35031167e-01 
 2.50000000e-01  5.52235797e-13  5.73731983e-13  5.94142654e-13  6.13813462e-13  6.25798683e-13  7.80610224e-13  9.27807920e-13  1.06951442e-12  1.13320919e+00  1.36058342e+00  1.56159117e+00  1.74240952e+00 
 3.00000000e-01  7.41021384e-13  7.99058975e-13  8.54179698e-13  9.07269164e-13  2.84089503e-12  3.88660990e-12  4.88038733e-12  5.83716890e-12  3.83375580e+00  4.86398379e+00  5.71353703e+00  6.43377856e+00 
 3.50000000e-01  1.09096511e-12  1.25183592e-12  1.40471220e-12  1.55189005e-12  1.76008305e-11  2.46995374e-11  3.14450670e-11  3.79395151e-11  1.61332661e+01  1.97306508e+01  2.23854160e+01  2.44472959e+01 
 4.00000000e-01  1.95523395e-12  2.43061568e-12  2.88229583e-12  3.31718349e-12  1.17591032e-10  1.65814074e-10  2.11637375e-10  2.55755100e-10  6.01416681e+01  6.82189603e+01  7.34266669e+01  7.71000762e+01 
 4.50000000e-01  4.75814908e-12  6.34575378e-12  7.85435114e-12  9.30678813e-12  7.96625568e-10  1.12424345e-09  1.43555769e-09  1.73528447e-09  1.67423415e+02  1.77164682e+02  1.82772283e+02  1.86453634e+02 
 5.00000000e-01  1.64550757e-11  2.28147080e-11  2.88578270e-11  3.46760073e-11  5.40946747e-09  7.63520074e-09  9.75017181e-09  1.17864216e-08  3.28741572e+02  3.34661340e+02  3.37869231e+02  3.39901348e+02 
 5.50000000e-01  7.61161945e-11  1.06984646e-10  1.36316966e-10  1.64557437e-10  3.67452784e-08  5.18653934e-08  6.62330742e-08  8.00659816e-08  4.82752437e+02  4.84792868e+02  4.85875501e+02  4.86553406e+02 
 6.00000000e-01  4.20982499e-10  5.93721645e-10  7.57865089e-10  9.15899357e-10  2.49580379e-07  3.52282292e-07  4.49873769e-07  5.43833109e-07  5.92852149e+02  5.93345881e+02  5.93606666e+02  5.93769506e+02 
 6.50000000e-01  2.54443461e-09  3.59104138e-09  4.58558930e-09  5.54313629e-09  1.69404398e-06  2.39124045e-06  3.05376294e-06  3.69164041e-06  6.65784052e+02  6.65890532e+02  6.65947763e+02  6.65984059e+02 
 7.00000000e-01  1.59505232e-08  2.25191702e-08  2.87620089e-08  3.47732181e-08  1.14506088e-05  1.61676801e-05  2.06509957e-05  2.49681118e-05  7.17882959e+02  7.17951862e+02  7.17995597e+02  7.18027067e+02 
 7.50000000e-01  9.95635680e-08  1.40766281e-07  1.79963065e-07  2.17731384e-07  7.53627832e-05  1.06597297e-04  1.36320075e-04  1.64965754e-04  7.56931322e+02  7.57264425e+02  7.57489182e+02  7.57657214e+02 
 8.00000000e-01  5.59552186e-07  7.96248547e-07  1.02249532e-06  1.24124440e-06  4.31034429e-04  6.14631450e-04  7.90388063e-04  9.60504603e-04  7.70320338e+02  7.71909038e+02  7.72999199e+02  7.73823916e+02 
 8.50000000e-01  2.26721339e-06  3.26905201e-06  4.23710254e-06  5.18058268e-06  1.64267737e-03  2.38020988e-03  3.09567233e-03  3.79498494e-03  7.24535845e+02  7.28104013e+02  7.30610671e+02  7.32540175e+02 
 9.00000000e-01  6.15029106e-06  8.96581459e-06  1.17126334e-05  1.44090720e-05  3.89735378e-03  5.71842058e-03  7.50464464e-03  9.26511887e-03  6.33686072e+02  6.37802680e+02  6.40730772e+02  6.43005937e+02 
 9.50000000e-01  1.26827158e-05  1.86116725e-05  2.44297313e-05  3.01661161e-05  6.86185500e-03  1.01377976e-02  1.33707918e-02  1.65719116e-02  5.41039879e+02  5.44701052e+02  5.47316367e+02  5.49355162e+02 
 1.00000000e+00  2.21407966e-05  3.26248095e-05  4.29495137e-05  5.31565563e-05  1.02559860e-02  1.52110967e-02  2.01179089e-02  2.49887897e-02  4.63216666e+02  4.66243233e+02  4.68408305e+02  4.70097980e+02 
 1.05000000e+00  3.47127223e-05  5.12895277e-05  6.76529836e-05  8.38585649e-05  1.39248077e-02  2.07013595e-02  2.74256670e-02  3.41110316e-02  4.01144213e+02  4.03617666e+02  4.05387398e+02  4.06768607e+02 
 1.10000000e+00  5.05455066e-05  7.48676683e-05  9.89981675e-05  1.23086967e-04  1.77810702e-02  2.64740802e-02  3.51087268e-02  4.36961142e-02  3.51783400e+02  3.53611657e+02  3.54640168e+02  3.55001958e+02 
 1.15000000e+00  7.72046565e-05  1.26920136e-04  1.84420861e-04  2.48473426e-04  2.15659967e-02  3.18288850e-02  4.18589188e-02  5.17156850e-02  2.79335440e+02  2.50778845e+02  2.26974967e+02  2.08133666e+02 
 1.20000000e+00  1.78213173e-04  3.13355277e-04  4.70579470e-04  6.45853866e-04  2.44041892e-02  3.58037440e-02  4.69391756e-02  5.78690156e-02  1.36938189e+02  1.14259266e+02  9.97476062e+01  8.96007885e+01 
 1.25000000e+00  4.05682465e-04  7.21580150e-04  1.08787860e-03  1.49629939e-03  2.70184139e-02  3.95352703e-02  5.17118799e-02  6.36200723e-02  6.65999057e+01  5.47898529e+01  4.75346053e+01  4.25182772e+01 
 1.30000000e+00  8.36353529e-04  1.49305402e-03  2.24938829e-03  3.08445335e-03  2.94757820e-02  4.29263358e-02  5.59174807e-02  6.85488472e-02  3.52432087e+01  2.87506916e+01  2.48589721e+01  2.22239857e+01 
 1.35000000e+00  1.58368773e-03  2.81018060e-03  4.19081561e-03  5.68153669e-03  3.15809493e-02  4.56620692e-02  5.91543782e-02  7.22028560e-02  1.99413993e+01  1.62488024e+01  1.41152424e+01  1.27083323e+01 
 1.40000000e+00  2.75733241e-03  4.78920096e-03  6.99887149e-03  9.32219142e-03  3.31666716e-02  4.75846714e-02  6.13303852e-02  7.45876152e-02  1.20285358e+01  9.93582683e+00  8.76289632e+00  8.00108171e+00 
 1.45000000e+00  4.37911624e-03  7.37668652e-03  1.05363190e-02  1.37894305e-02  3.42280416e-02  4.88126598e-02  6.26912637e-02  7.60647661e-02  7.81619845e+00  6.61715252e+00  5.95001573e+00  5.51616445e+00 
 1.50000000e+00  6.36709329e-03  1.04140982e-02  1.45860910e-02  1.88205926e-02  3.48994536e-02  4.95809920e-02  6.35441218e-02  7.69952129e-02  5.48122227e+00  4.76094913e+00  4.35648740e+00  4.09100896e+00 
 1.55000000e+00  8.61142589e-03  1.37533379e-02  1.89745373e-02  2.42227515e-02  3.53274440e-02  5.00765312e-02  6.41008653e-02  7.76090064e-02  4.10239192e+00  3.64104565e+00  3.37825710e+00  3.20397154e+00 
 1.60000000e+00  1.10267535e-02  1.72931206e-02  2.35890328e-02  2.98740397e-02  3.56112511e-02  5.04115611e-02  6.44826902e-02  7.80345926e-02  3.22953181e+00  2.91512227e+00  2.73358771e+00  2.61212054e+00 
