 v-sweep         (dc1.i(vib_v))  (dc2.i(vib_v))  (dc3.i(vib_v))  (dc4.i(vib_v))  (dc5.i(vib_v))  (dc6.i(vib_v))  (dc7.i(vib_v))  (dc8.i(vib_v))  (dc9.i(vib_v))  (dc1.i(vic_v))  (dc2.i(vic_v))  (dc3.i(vic_v))  (dc4.i(vic_v))  (dc5.i(vic_v))  (dc6.i(vic_v))  (dc7.i(vic_v))  (dc8.i(vic_v))  (dc9.i(vic_v))  dc1.i(vic_v)/dc1.i(vib_v) dc2.i(vic_v)/dc2.i(vib_v) dc3.i(vic_v)/dc3.i(vib_v) dc4.i(vic_v)/dc4.i(vib_v) dc5.i(vic_v)/dc5.i(vib_v) dc6.i(vic_v)/dc6.i(vib_v) dc7.i(vic_v)/dc7.i(vib_v) dc8.i(vic_v)/dc8.i(vib_v) dc9.i(vic_v)/dc9.i(vib_v)
 1.00000000e-01  2.00023560e-13  2.00047819e-13  2.00071205e-13  2.00075403e-13  2.00088006e-13  2.00105389e-13  2.00114519e-13  2.00105892e-13  2.00122182e-13  1.00002578e-13  1.00001950e-13  1.00002131e-13  1.00002582e-13  1.00006827e-13  1.00005882e-13  1.00004782e-13  1.00006909e-13  1.00012521e-13  4.99953996e-01  4.99890230e-01  4.99832704e-01  4.99824467e-01  4.99814204e-01  4.99766061e-01  4.99737761e-01  4.99769936e-01  4.99757297e-01 
 1.50000000e-01  3.00066932e-13  3.00108856e-13  3.00132173e-13  3.00145782e-13  3.00145887e-13  3.00171962e-13  3.00202770e-13  3.00240422e-13  3.00311780e-13  1.50002750e-13  1.50003359e-13  1.50000963e-13  1.50004500e-13  1.50011773e-13  1.50007549e-13  1.50006249e-13  1.50012098e-13  1.50018447e-13  4.99897637e-01  4.99829832e-01  4.99783017e-01  4.99772140e-01  4.99796198e-01  4.99738709e-01  4.99683095e-01  4.99639911e-01  4.99542333e-01 
 2.00000000e-01  4.00321045e-13  4.00481768e-13  4.00658377e-13  4.00782557e-13  4.00950287e-13  4.01023873e-13  4.01127781e-13  4.01328943e-13  4.01416747e-13  2.00046802e-13  2.00061053e-13  2.00076921e-13  2.00087126e-13  2.00112010e-13  2.00123410e-13  2.00133615e-13  2.00149387e-13  2.00157954e-13  4.99715927e-01  4.99550963e-01  4.99370368e-01  4.99241104e-01  4.99094318e-01  4.99031164e-01  4.98927336e-01  4.98716553e-01  4.98628807e-01 
 2.50000000e-01  5.01097076e-13  5.01598212e-13  5.02073647e-13  5.02546153e-13  5.02978539e-13  5.03473937e-13  5.03915494e-13  5.04380959e-13  5.04820963e-13  2.50458577e-13  2.50629590e-13  2.50792629e-13  2.50946807e-13  2.51105416e-13  2.51250290e-13  2.51388075e-13  2.51526747e-13  2.51651241e-13  4.99820471e-01  4.99662049e-01  4.99513628e-01  4.99350767e-01  4.99236838e-01  4.99033359e-01  4.98869509e-01  4.98684065e-01  4.98496020e-01 
 3.00000000e-01  6.03604316e-13  6.05269056e-13  6.06916418e-13  6.08427017e-13  6.10027086e-13  6.11503513e-13  6.12994404e-13  6.14508323e-13  6.16028856e-13  3.04822270e-13  3.06670117e-13  3.08391409e-13  3.10031529e-13  3.11620640e-13  3.13138983e-13  3.14615252e-13  3.16062399e-13  3.17459156e-13  5.05003464e-01  5.06667430e-01  5.08128302e-01  5.09562397e-01  5.10830826e-01  5.12080431e-01  5.13243270e-01  5.14333796e-01  5.15331633e-01 
 3.50000000e-01  7.11995471e-13  7.17419918e-13  7.22769691e-13  7.27907366e-13  7.33088405e-13  7.38178196e-13  7.43147269e-13  7.48231468e-13  7.53010309e-13  4.01027562e-13  4.20576968e-13  4.38836624e-13  4.56201185e-13  4.72891172e-13  4.89011794e-13  5.04675966e-13  5.19968295e-13  5.34908348e-13  5.63244541e-01  5.86235421e-01  6.07159694e-01  6.26729728e-01  6.45067047e-01  6.62457651e-01  6.79106265e-01  6.94929734e-01  7.10359927e-01 
 4.00000000e-01  8.39955852e-13  8.58083076e-13  8.75855463e-13  8.93178691e-13  9.10393316e-13  9.27208842e-13  9.43953401e-13  9.60494368e-13  9.77005703e-13  9.40156051e-13  1.14711890e-12  1.34045881e-12  1.52425574e-12  1.70081995e-12  1.87153726e-12  2.03743191e-12  2.19922982e-12  2.35745467e-12  1.11929222e+00  1.33683898e+00  1.53045664e+00  1.70655185e+00  1.86822544e+00  2.01846356e+00  2.15840306e+00  2.28968529e+00  2.41293850e+00 
 4.50000000e-01  1.03590961e-12  1.09783518e-12  1.15811749e-12  1.21720336e-12  1.27562764e-12  1.33297132e-12  1.39009165e-12  1.44642769e-12  1.50228365e-12  6.16799804e-12  8.35891016e-12  1.04055992e-11  1.23513350e-11  1.42202296e-11  1.60275264e-11  1.77837314e-11  1.94964448e-11  2.11714348e-11  5.95418554e+00  7.61399374e+00  8.98492537e+00  1.01473061e+01  1.11476337e+01  1.20239094e+01  1.27932078e+01  1.34790318e+01  1.40928345e+01 
 5.00000000e-01  1.49021367e-12  1.71329408e-12  1.93073332e-12  2.14410365e-12  2.35433763e-12  2.56181065e-12  2.76714742e-12  2.97058754e-12  3.17243172e-12  6.10278605e-11  8.42198246e-11  1.05885113e-10  1.26481654e-10  1.46264699e-10  1.65395868e-10  1.83986157e-10  2.02116163e-10  2.19846810e-10  4.09524229e+01  4.91566658e+01  5.48419152e+01  5.89904570e+01  6.21256260e+01  6.45620970e+01  6.64894670e+01  6.80391204e+01  6.92991461e+01 
 5.50000000e-01  3.12997888e-12  4.05377170e-12  4.95435160e-12  5.83798137e-12  6.70833313e-12  7.56778340e-12  8.41829859e-12  9.26039352e-12  1.00959565e-11  6.41232693e-10  8.86717888e-10  1.11604340e-09  1.33405615e-09  1.54345799e-09  1.74596000e-09  1.94273688e-09  2.13464148e-09  2.32231916e-09  2.04868058e+02  2.18738980e+02  2.25265279e+02  2.28513260e+02  2.30080701e+02  2.30709563e+02  2.30775478e+02  2.30513042e+02  2.30024679e+02 
 6.00000000e-01  1.19691430e-11  1.68699665e-11  2.16472684e-11  2.63349686e-11  3.09521851e-11  3.55119457e-11  4.00228952e-11  4.44915579e-11  4.89232953e-11  6.78165449e-09  9.37989859e-09  1.18071070e-08  1.41145800e-08  1.63309142e-08  1.84742202e-08  2.05569309e-08  2.25880729e-08  2.45744759e-08  5.66594826e+02  5.56011691e+02  5.45431729e+02  5.35963426e+02  5.27617491e+02  5.20225513e+02  5.13629281e+02  5.07693458e+02  5.02306227e+02 
 6.50000000e-01  7.69687563e-11  1.11403646e-10  1.44971573e-10  1.77909105e-10  2.10352603e-10  2.42391480e-10  2.74087473e-10  3.05487147e-10  3.36625389e-10  7.17627000e-08  9.92594696e-08  1.24946240e-07  1.49365896e-07  1.72821062e-07  1.95503397e-07  2.17544472e-07  2.39039812e-07  2.60061693e-07  9.32361433e+02  8.90989418e+02  8.61867174e+02  8.39562966e+02  8.21577960e+02  8.06560515e+02  7.93704539e+02  7.82487297e+02  7.72555194e+02 
 7.00000000e-01  6.46473954e-10  9.40050479e-10  1.22623854e-09  1.50705492e-09  1.78366366e-09  2.05682121e-09  2.32705914e-09  2.59476950e-09  2.86025456e-09  7.59089905e-07  1.04997616e-06  1.32171917e-06  1.58006030e-06  1.82820011e-06  2.06816561e-06  2.30134836e-06  2.52875868e-06  2.75116102e-06  1.17420029e+03  1.11693593e+03  1.07786464e+03  1.04844241e+03  1.02496909e+03  1.00551550e+03  9.88951384e+02  9.74560047e+02  9.61858800e+02 
 7.50000000e-01  6.00966640e-09  8.74598757e-09  1.14138274e-08  1.40318567e-08  1.66108543e-08  1.91578322e-08  2.16777120e-08  2.41741338e-08  2.66498967e-08  8.00072035e-06  1.10698519e-05  1.39375141e-05  1.66640876e-05  1.92832425e-05  2.18163082e-05  2.42779302e-05  2.66787434e-05  2.90267953e-05  1.33130857e+03  1.26570634e+03  1.22110784e+03  1.18758963e+03  1.16088205e+03  1.13876706e+03  1.11994893e+03  1.10360701e+03  1.08918979e+03 
 8.00000000e-01  5.64091209e-08  8.22822616e-08  1.07544562e-07  1.32360491e-07  1.56825462e-07  1.81001775e-07  2.04933275e-07  2.28652469e-07  2.52184405e-07  8.14564180e-05  1.13024422e-04  1.42573006e-04  1.70703055e-04  1.97750705e-04  2.23929389e-04  2.49385927e-04  2.74227092e-04  2.98533785e-04  1.44402920e+03  1.37361832e+03  1.32571098e+03  1.28968284e+03  1.26096045e+03  1.23716681e+03  1.21691281e+03  1.19931831e+03  1.18379162e+03 
 8.50000000e-01  4.39347307e-07  6.49315427e-07  8.56311567e-07  1.06106023e-06  1.26399695e-06  1.46541374e-06  1.66552050e-06  1.86447557e-06  2.06240278e-06  6.44719430e-04  9.09412403e-04  1.16015963e-03  1.40092669e-03  1.63397300e-03  1.86075310e-03  2.08227870e-03  2.29929237e-03  2.51236122e-03  1.46744824e+03  1.40057107e+03  1.35483354e+03  1.32030836e+03  1.29270328e+03  1.26978003e+03  1.25022700e+03  1.23321131e+03  1.21817195e+03 
 9.00000000e-01  2.69160343e-06  4.05875972e-06  5.42739235e-06  6.79632455e-06  8.16524822e-06  9.53410025e-06  1.09028346e-05  1.22713344e-05  1.36393801e-05  2.21274193e-03  3.20068908e-03  4.15842809e-03  5.09418288e-03  6.01261950e-03  6.91675167e-03  7.80871129e-03  8.69011433e-03  9.56225355e-03  8.22090619e+02  7.88587968e+02  7.66192642e+02  7.49549679e+02  7.36367020e+02  7.25475030e+02  7.16209278e+02  7.08163760e+02  7.01076844e+02 
 9.50000000e-01  2.36214090e-05  3.61920650e-05  4.89612750e-05  6.18745759e-05  7.49004145e-05  8.80182296e-05  1.01213579e-04  1.14475773e-04  1.27796582e-04  3.13933674e-03  4.55880064e-03  5.93916263e-03  7.29098226e-03  8.62037775e-03  9.93134040e-03  1.12266773e-02  1.25084688e-02  1.37783171e-02  1.32902180e+02  1.25961330e+02  1.21303267e+02  1.17834864e+02  1.15091189e+02  1.12832767e+02  1.10920663e+02  1.09267389e+02  1.07814441e+02 
 1.00000000e+00  1.52777149e-04  2.36953395e-04  3.23207430e-04  4.10966717e-04  4.99823656e-04  5.89765337e-04  6.80467047e-04  7.71837575e-04  8.63807877e-04  4.18407005e-03  6.06694184e-03  7.89506269e-03  9.68320617e-03  1.14402013e-02  1.31709114e-02  1.48798908e-02  1.65699620e-02  1.82433104e-02  2.73867530e+01  2.56039456e+01  2.44272314e+01  2.35620204e+01  2.28884752e+01  2.23324610e+01  2.18671732e+01  2.14681981e+01  2.11196388e+01 
 1.05000000e+00  8.38974876e-04  1.29551461e-03  1.75970683e-03  2.22892376e-03  2.70172198e-03  3.17720392e-03  3.65476693e-03  4.13398268e-03  4.61453439e-03  4.78355100e-03  6.90400419e-03  8.95578011e-03  1.09577985e-02  1.29209491e-02  1.48522988e-02  1.67567967e-02  1.86380964e-02  2.04990027e-02  5.70166180e+00  5.32915966e+00  5.08935918e+00  4.91618363e+00  4.78248658e+00  4.67464450e+00  4.58491527e+00  4.50850858e+00  4.44226892e+00 
 1.10000000e+00  2.78160431e-03  4.20709482e-03  5.63167662e-03  7.05345338e-03  8.47170204e-03  9.88614804e-03  1.12967153e-02  1.27034227e-02  1.41063364e-02  4.93802179e-03  7.11552703e-03  9.22058115e-03  1.12733056e-02  1.32852426e-02  1.52638646e-02  1.72143947e-02  1.91406829e-02  2.10456810e-02  1.77524236e+00  1.69131606e+00  1.63727106e+00  1.59826755e+00  1.56819049e+00  1.54396481e+00  1.52384071e+00  1.50673431e+00  1.49193104e+00 
 1.15000000e+00  5.71728040e-03  8.54017674e-03  1.13348084e-02  1.41049409e-02  1.68534752e-02  1.95826668e-02  2.22943170e-02  2.49898984e-02  2.76706382e-02  4.97689044e-03  7.16945815e-03  9.28876122e-03  1.13551799e-02  1.33803967e-02  1.53719716e-02  1.73351867e-02  1.92739345e-02  2.11911986e-02  8.70499625e-01  8.39497633e-01  8.19489922e-01  8.05049807e-01  7.93925085e-01  7.84978461e-01  7.77560787e-01  7.71269021e-01  7.65837001e-01 
 1.20000000e+00  9.15242594e-03  1.35864122e-02  1.79554905e-02  2.22716137e-02  2.65427455e-02  3.07746174e-02  3.49715744e-02  3.91370362e-02  4.32737720e-02  4.99119663e-03  7.18957431e-03  9.31442924e-03  1.13862226e-02  1.34166817e-02  1.54133944e-02  1.73816615e-02  1.93253893e-02  2.12475714e-02  5.45341384e-01  5.29173870e-01  5.18751032e-01  5.11243719e-01  5.05474527e-01  5.00847636e-01  4.97022562e-01  4.93787755e-01  4.91003452e-01 
 1.25000000e+00  1.28481014e-02  1.90067192e-02  2.50594044e-02  3.10274510e-02  3.69245704e-02  4.27604151e-02  4.85421877e-02  5.42754889e-02  5.99648099e-02  4.99813609e-03  7.19941186e-03  9.32705267e-03  1.14015550e-02  1.34346656e-02  1.54339843e-02  1.74048202e-02  1.93510854e-02  2.12757782e-02  3.89017484e-01  3.78782460e-01  3.72197700e-01  3.67466700e-01  3.63840810e-01  3.60940936e-01  3.58550387e-01  3.56534521e-01  3.54804397e-01 
 1.30000000e+00  1.66967219e-02  2.46477198e-02  3.24494090e-02  4.01330398e-02  4.77184309e-02  5.52193931e-02  6.26461544e-02  7.00066213e-02  7.73071043e-02  5.00212389e-03  7.20509420e-03  9.33437017e-03  1.14104670e-02  1.34451416e-02  1.54460003e-02  1.74183566e-02  1.93661257e-02  2.12923081e-02  2.99587183e-01  2.92322951e-01  2.87659173e-01  2.84316041e-01  2.81759926e-01  2.79720573e-01  2.78043509e-01  2.76632771e-01  2.75424985e-01 
 1.35000000e+00  2.06441636e-02  3.04318431e-02  4.00254301e-02  4.94664942e-02  5.87811754e-02  6.79875834e-02  7.70990723e-02  8.61259294e-02  9.50763422e-02  5.00468066e-03  7.20875018e-03  9.33908961e-03  1.14162254e-02  1.34519207e-02  1.54537857e-02  1.74271365e-02  1.93758902e-02  2.13030486e-02  2.42425935e-01  2.36881813e-01  2.33328901e-01  2.30787033e-01  2.28847427e-01  2.27303059e-01  2.26035618e-01  2.24971623e-01  2.24062560e-01 
 1.40000000e+00  2.46601300e-02  3.63154844e-02  4.77310462e-02  5.89589381e-02  7.00317594e-02  8.09720106e-02  9.17962364e-02  1.02517154e-01  1.13144866e-01  5.00644819e-03  7.21128408e-03  9.34236638e-03  1.14202290e-02  1.34566391e-02  1.54592094e-02  1.74332578e-02  1.93827026e-02  2.13105467e-02  2.03017916e-01  1.98573259e-01  1.95729345e-01  1.93698010e-01  1.92150521e-01  1.90920409e-01  1.89912555e-01  1.89067896e-01  1.88347447e-01 
 1.45000000e+00  2.87261694e-02  4.22720010e-02  5.55317050e-02  6.85681179e-02  8.14203933e-02  9.41154858e-02  1.06673176e-01  1.19108644e-01  1.31433935e-01  5.00773880e-03  7.21313793e-03  9.34476703e-03  1.14231652e-02  1.34601025e-02  1.54631934e-02  1.74377569e-02  1.93877124e-02  2.13160633e-02  1.74326717e-01  1.70636302e-01  1.68278050e-01  1.66595869e-01  1.65316107e-01  1.64300202e-01  1.63468996e-01  1.62773345e-01  1.62180819e-01 
 1.50000000e+00  3.28302956e-02  4.82840415e-02  6.34048636e-02  7.82664278e-02  9.29145111e-02  1.07380568e-01  1.21687647e-01  1.35853417e-01  1.49891884e-01  5.00872096e-03  7.21455098e-03  9.34659892e-03  1.14254077e-02  1.34627494e-02  1.54662399e-02  1.74411992e-02  1.93915471e-02  2.13202875e-02  1.52563992e-01  1.49418954e-01  1.47411388e-01  1.45980953e-01  1.44893938e-01  1.44032019e-01  1.43327607e-01  1.42738751e-01  1.42237772e-01 
 1.55000000e+00  3.69643143e-02  5.43397201e-02  7.13350576e-02  8.80349095e-02  1.04491728e-01  1.20741501e-01  1.36810571e-01  1.52719113e-01  1.68483108e-01  5.00949293e-03  7.21566316e-03  9.34804215e-03  1.14271757e-02  1.34648376e-02  1.54686445e-02  1.74439173e-02  1.93945761e-02  2.13236254e-02  1.35522409e-01  1.32788008e-01  1.31044152e-01  1.29802777e-01  1.28860321e-01  1.28113734e-01  1.27504163e-01  1.26995081e-01  1.26562393e-01 
 1.60000000e+00  4.11222608e-02  6.04303714e-02  7.93110011e-02  9.78597156e-02  1.16135682e-01  1.34179449e-01  1.52020671e-01  1.69682045e-01  1.87181537e-01  5.01011640e-03  7.21656248e-03  9.34921012e-03  1.14286074e-02  1.34665294e-02  1.54705936e-02  1.74461213e-02  1.93970330e-02  2.13263336e-02  1.21834654e-01  1.19419463e-01  1.17880370e-01  1.16785619e-01  1.15955141e-01  1.15297788e-01  1.14761507e-01  1.14313999e-01  1.13933959e-01 
