 v-sweep         (dc1.i(vib_l))  (dc2.i(vib_l))  (dc3.i(vib_l))  (dc4.i(vib_l))  (dc1.i(vic_l))  (dc2.i(vic_l))  (dc3.i(vic_l))  (dc4.i(vic_l))  dc1.i(vic_l)/dc1.i(vib_l) dc2.i(vic_l)/dc2.i(vib_l) dc3.i(vic_l)/dc3.i(vib_l) dc4.i(vic_l)/dc4.i(vib_l)
 1.00000000e-01  2.01626174e-13  2.02302636e-13  2.02938904e-13  2.03550289e-13  1.02185227e-13  1.03206412e-13  1.04213104e-13  1.05210193e-13  5.06805368e-01  5.10158513e-01  5.13519598e-01  5.16875677e-01 
 1.50000000e-01  3.03476117e-13  3.04900945e-13  3.06262598e-13  3.07574482e-13  1.53825885e-13  1.55531572e-13  1.57193228e-13  1.58817368e-13  5.06879705e-01  5.10105246e-01  5.13262894e-01  5.16354174e-01 
 2.00000000e-01  4.12950462e-13  4.18284936e-13  4.23352317e-13  4.28239618e-13  2.38139421e-13  2.53963362e-13  2.69029117e-13  2.83569192e-13  5.76677940e-01  6.07153974e-01  6.35473355e-01  6.62174120e-01 
 2.50000000e-01  5.34817456e-13  5.49154442e-13  5.62773597e-13  5.75879021e-13  5.00586489e-13  6.03836905e-13  7.01975295e-13  7.96490569e-13  9.35995046e-01  1.09957575e+00  1.24734938e+00  1.38308662e+00 
 3.00000000e-01  6.94018304e-13  7.32697944e-13  7.69466362e-13  8.04867393e-13  1.99398227e-12  2.69117230e-12  3.35369636e-12  3.99158948e-12  2.87309752e+00  3.67296281e+00  4.35847040e+00  4.95931319e+00 
 3.50000000e-01  9.60637181e-13  1.06789918e-12  1.16983221e-12  1.26795875e-12  1.18506053e-11  1.65831231e-11  2.10801460e-11  2.54098254e-11  1.23361926e+01  1.55287347e+01  1.80198030e+01  2.00399465e+01 
 4.00000000e-01  1.57014869e-12  1.88706942e-12  2.18819465e-12  2.47811218e-12  7.85274146e-11  1.10676144e-10  1.41225016e-10  1.70636876e-10  5.00127248e+01  5.86497472e+01  6.45395125e+01  6.88576075e+01 
 4.50000000e-01  3.47210144e-12  4.53051142e-12  5.53624238e-12  6.50453864e-12  5.31233774e-10  7.49645728e-10  9.57188569e-10  1.15700646e-09  1.53000649e+02  1.65466028e+02  1.72894990e+02  1.77876792e+02 
 5.00000000e-01  1.13033848e-11  1.55431413e-11  1.95719036e-11  2.34506720e-11  3.60647873e-09  5.09030105e-09  6.50028193e-09  7.85778192e-09  3.19061837e+02  3.27495000e+02  3.32123133e+02  3.35077048e+02 
 5.50000000e-01  5.11108366e-11  7.16897963e-11  9.12446740e-11  1.10071681e-10  2.44970525e-08  3.45771347e-08  4.41555936e-08  5.33775365e-08  4.79292732e+02  4.82315985e+02  4.83925162e+02  4.84934325e+02 
 6.00000000e-01  2.81056216e-10  3.96216034e-10  5.05645364e-10  6.11001865e-10  1.66387897e-07  2.34856094e-07  2.99917310e-07  3.62557083e-07  5.92009312e+02  5.92747578e+02  5.93137664e+02  5.93381303e+02 
 6.50000000e-01  1.69677432e-09  2.39452896e-09  3.05757612e-09  3.69595487e-09  1.12939868e-06  1.59420808e-06  2.03590035e-06  2.46116184e-06  6.65615141e+02  6.65771058e+02  6.65854348e+02  6.65906896e+02 
 7.00000000e-01  1.06363456e-08  1.50161666e-08  1.91787120e-08  2.31867904e-08  7.63537089e-06  1.07806224e-05  1.37699847e-05  1.66485121e-05  7.17856602e+02  7.17934388e+02  7.17982766e+02  7.18017103e+02 
 7.50000000e-01  6.64659723e-08  9.39644445e-08  1.20122796e-07  1.45326905e-07  5.03113611e-05  7.11576736e-05  9.09939713e-05  1.10110708e-04  7.56949149e+02  7.57282970e+02  7.57507937e+02  7.57676002e+02 
 8.00000000e-01  3.75575614e-07  5.34291099e-07  6.85965816e-07  8.32590420e-07  2.89294491e-04  4.12402822e-04  5.30228462e-04  6.44255191e-04  7.70269636e+02  7.71869160e+02  7.72966305e+02  7.73796065e+02 
 8.50000000e-01  1.54090569e-06  2.22080103e-06  2.87751690e-06  3.51738431e-06  1.11450732e-03  1.61433240e-03  2.09905299e-03  2.57272450e-03  7.23280681e+02  7.26914468e+02  7.29466781e+02  7.31431165e+02 
 9.00000000e-01  4.23591009e-06  6.17263537e-06  8.06145907e-06  9.91516806e-06  2.66820834e-03  3.91404133e-03  5.13578582e-03  6.33973078e-03  6.29902025e+02  6.34095665e+02  6.37078942e+02  6.39397209e+02 
 9.50000000e-01  8.82719883e-06  1.29497884e-05  1.69941802e-05  2.09809916e-05  4.72361989e-03  6.97772171e-03  9.20198111e-03  1.14040937e-02  5.35121048e+02  5.38829013e+02  5.41478377e+02  5.43544075e+02 
 1.00000000e+00  1.55327939e-05  2.28822618e-05  3.01184997e-05  3.72711158e-05  7.08421469e-03  1.05058416e-02  1.38938062e-02  1.72567270e-02  4.56081162e+02  4.59126011e+02  4.61304724e+02  4.63005375e+02 
 1.05000000e+00  2.45001013e-05  3.61928524e-05  4.77331197e-05  5.91605763e-05  9.64030135e-03  1.43306732e-02  1.89845491e-02  2.36112167e-02  3.93480062e+02  3.95953130e+02  3.97722782e+02  3.99103900e+02 
 1.10000000e+00  3.58537320e-05  5.31418291e-05  7.03954215e-05  8.78288388e-05  1.23294161e-02  1.83543734e-02  2.43346587e-02  3.02740281e-02  3.43880968e+02  3.45384677e+02  3.45685248e+02  3.44693480e+02 
 1.15000000e+00  5.90170110e-05  9.92855975e-05  1.45809131e-04  1.97734247e-04  1.48660735e-02  2.18813682e-02  2.87331109e-02  3.54609318e-02  2.51894721e+02  2.20388140e+02  1.97059750e+02  1.79336318e+02 
 1.20000000e+00  1.42528071e-04  2.51757324e-04  3.78109057e-04  5.19075676e-04  1.67543404e-02  2.45489847e-02  3.21518611e-02  3.96062062e-02  1.17551162e+02  9.75105086e+01  8.50333004e+01  7.63014105e+01 
 1.25000000e+00  3.25801052e-04  5.79960422e-04  8.73970371e-04  1.20077858e-03  1.85246950e-02  2.70577525e-02  3.53398593e-02  4.34245689e-02  5.68589169e+01  4.66544809e+01  4.04359924e+01  3.61636773e+01 
 1.30000000e+00  6.72776113e-04  1.19890317e-03  1.80029545e-03  2.45923928e-03  2.01495907e-02  2.92646826e-02  3.80424663e-02  4.65596038e-02  2.99499199e+01  2.44095464e+01  2.11312351e+01  1.89325228e+01 
 1.35000000e+00  1.27078479e-03  2.23728175e-03  3.31010138e-03  4.45554104e-03  2.14801238e-02  3.09551678e-02  4.00131169e-02  4.87618429e-02  1.69030382e+01  1.38360615e+01  1.20881847e+01  1.09440902e+01 
 1.40000000e+00  2.18456222e-03  3.74234328e-03  5.41089474e-03  7.14707178e-03  2.24273347e-02  3.20826101e-02  4.12786284e-02  5.01437518e-02  1.02662833e+01  8.57286672e+00  7.62879900e+00  7.01598547e+00 
 1.45000000e+00  3.39903187e-03  5.63832060e-03  7.96981347e-03  1.03511461e-02  2.30342572e-02  3.27818245e-02  4.20547631e-02  5.09888813e-02  6.77671118e+00  5.81411147e+00  5.27675626e+00  4.92591647e+00 
 1.50000000e+00  4.84011648e-03  7.80706916e-03  1.08372276e-02  1.38941177e-02  2.34117940e-02  3.32171915e-02  4.25416855e-02  5.15235392e-02  4.83703111e+00  4.25475819e+00  3.92551371e+00  3.70829875e+00 
 1.55000000e+00  6.43373354e-03  1.01552252e-02  1.39065997e-02  1.76591653e-02  2.36530564e-02  3.35001671e-02  4.28626290e-02  5.18799316e-02  3.67641218e+00  3.29881085e+00  3.08217897e+00  2.93784733e+00 
 1.60000000e+00  8.12827011e-03  1.26227704e-02  1.71115237e-02  2.15744714e-02  2.38147072e-02  3.36936883e-02  4.30852722e-02  5.21298233e-02  2.92986169e+00  2.66927840e+00  2.51790974e+00  2.41627349e+00 
