 v-sweep         (dc1.i(vib_l))  (dc2.i(vib_l))  (dc3.i(vib_l))  (dc4.i(vib_l))  (dc1.i(vic_l))  (dc2.i(vic_l))  (dc3.i(vic_l))  (dc4.i(vic_l))  dc1.i(vic_l)/dc1.i(vib_l) dc2.i(vic_l)/dc2.i(vib_l) dc3.i(vic_l)/dc3.i(vib_l) dc4.i(vic_l)/dc4.i(vib_l)
 1.00000000e-01  2.00027967e-13  2.00032819e-13  2.00052179e-13  2.00044404e-13  1.00002502e-13  1.00008758e-13  1.00009141e-13  1.00013579e-13  4.99942602e-01  4.99961750e-01  4.99915279e-01  4.99956894e-01 
 1.50000000e-01  3.00050644e-13  3.00080420e-13  3.00107803e-13  3.00113503e-13  1.50003245e-13  1.50010805e-13  1.50011141e-13  1.50018006e-13  4.99926424e-01  4.99902008e-01  4.99857514e-01  4.99870898e-01 
 2.00000000e-01  4.00299347e-13  4.00398177e-13  4.00533678e-13  4.00630331e-13  2.00023664e-13  2.00040841e-13  2.00049382e-13  2.00073807e-13  4.99685213e-01  4.99604776e-01  4.99457082e-01  4.99397553e-01 
 2.50000000e-01  5.00937527e-13  5.01339466e-13  5.01716511e-13  5.02059176e-13  2.50268003e-13  2.50384628e-13  2.50485703e-13  2.50580559e-13  4.99599231e-01  4.99431315e-01  4.99257445e-01  4.99105625e-01 
 3.00000000e-01  6.03133552e-13  6.04451495e-13  6.05656028e-13  6.06803206e-13  3.02835873e-13  3.04017242e-13  3.05146125e-13  3.06195486e-13  5.02104172e-01  5.02963834e-01  5.03827439e-01  5.04604266e-01 
 3.50000000e-01  7.10343891e-13  7.14588389e-13  7.18656450e-13  7.22522342e-13  3.80898812e-13  3.93621682e-13  4.05690065e-13  4.17331708e-13  5.36217481e-01  5.50836941e-01  5.64511826e-01  5.77603879e-01 
 4.00000000e-01  8.34398395e-13  8.48497223e-13  8.61935205e-13  8.74880228e-13  7.36405662e-13  8.74834343e-13  1.00637337e-12  1.13302103e-12  8.82558819e-01  1.03103972e+00  1.16757427e+00  1.29505845e+00 
 4.50000000e-01  1.01589846e-12  1.06358252e-12  1.10888336e-12  1.15250330e-12  4.11368832e-12  5.62125793e-12  7.05379909e-12  8.43303517e-12  4.04931052e+00  5.28521091e+00  6.36117318e+00  7.31714624e+00 
 5.00000000e-01  1.40799970e-12  1.57589296e-12  1.73546307e-12  1.88904716e-12  4.03999701e-11  5.68183895e-11  7.24197439e-11  8.74403726e-11  2.86931667e+01  3.60547264e+01  4.17293488e+01  4.62880835e+01 
 5.50000000e-01  2.70537562e-12  3.36588288e-12  3.99357047e-12  4.59795637e-12  4.35073174e-10  6.13874808e-10  7.83778459e-10  9.47358116e-10  1.60818029e+02  1.82381512e+02  1.96260080e+02  2.06038953e+02 
 6.00000000e-01  9.10025638e-12  1.23511758e-11  1.54402761e-11  1.84143767e-11  4.73245718e-09  6.67956641e-09  8.52977893e-09  1.03111247e-08  5.20035589e+02  5.40804089e+02  5.52436943e+02  5.59949696e+02 
 6.50000000e-01  5.34962583e-11  7.49744987e-11  9.53839391e-11  1.15033685e-10  5.15249555e-08  7.27267598e-08  9.28734875e-08  1.12270346e-07  9.63150642e+02  9.70019955e+02  9.73680563e+02  9.75978007e+02 
 7.00000000e-01  4.35673331e-10  6.14379801e-10  7.84194663e-10  9.47689654e-10  5.60861343e-07  7.91662141e-07  1.01097963e-06  1.22213551e-06  1.28734376e+03  1.28855496e+03  1.28919474e+03  1.28959465e+03 
 7.50000000e-01  4.05437705e-09  5.72290154e-09  7.30854415e-09  8.83527076e-09  6.08955558e-06  8.59683192e-06  1.09796138e-05  1.32738966e-05  1.50197071e+03  1.50218065e+03  1.50229835e+03  1.50237576e+03 
 8.00000000e-01  3.87662714e-08  5.47985203e-08  7.00483442e-08  8.47411108e-08  6.44351585e-05  9.11123180e-05  1.16492918e-04  1.40950077e-04  1.66214485e+03  1.66267844e+03  1.66303600e+03  1.66330222e+03 
 8.50000000e-01  3.16865635e-07  4.51953416e-07  5.81310698e-07  7.06545423e-07  5.53915900e-04  7.91704635e-04  1.01975699e-03  1.24078647e-03  1.74810973e+03  1.75173947e+03  1.75423743e+03  1.75613122e+03 
 9.00000000e-01  1.48118011e-06  2.14886476e-06  2.79748166e-06  3.43216173e-06  2.44570119e-03  3.56567282e-03  4.65802514e-03  5.73006238e-03  1.65118419e+03  1.65932863e+03  1.66507799e+03  1.66951992e+03 
 9.50000000e-01  3.96659691e-06  5.81603011e-06  7.62959019e-06  9.41675832e-06  5.72494355e-03  8.44443279e-03  1.11245033e-02  1.37753650e-02  1.44328846e+03  1.45192384e+03  1.45807350e+03  1.46285639e+03 
 1.00000000e+00  7.85574475e-06  1.15817230e-05  1.52530248e-05  1.88864231e-05  9.75328216e-03  1.44657565e-02  1.91325692e-02  2.37661359e-02  1.24154774e+03  1.24901593e+03  1.25434591e+03  1.25837146e+03 
 1.05000000e+00  1.31999039e-05  1.95230354e-05  2.57707469e-05  3.19627250e-05  1.41898694e-02  2.11078758e-02  2.79764505e-02  3.48082557e-02  1.07499793e+03  1.08117798e+03  1.08558943e+03  1.08902653e+03 
 1.10000000e+00  2.00363825e-05  2.96962817e-05  3.92582593e-05  4.87478430e-05  1.88768177e-02  2.81295058e-02  3.73301261e-02  4.64919721e-02  9.42127041e+02  9.47239995e+02  9.50885921e+02  9.53723678e+02 
 1.15000000e+00  2.83989276e-05  4.22030484e-05  5.65487581e-05  7.35294745e-05  2.37322971e-02  3.54029110e-02  4.69754970e-02  5.83282015e-02  8.35675818e+02  8.38870943e+02  8.30707846e+02  7.93262863e+02 
 1.20000000e+00  6.17359780e-05  1.26661568e-04  2.12767353e-04  3.18498197e-04  2.77206542e-02  4.03591161e-02  5.25965195e-02  6.45383401e-02  4.49019439e+02  3.18637426e+02  2.47202021e+02  2.02633298e+02 
 1.25000000e+00  2.42298740e-04  5.04850711e-04  8.46288659e-04  1.25783039e-03  3.01919826e-02  4.37897956e-02  5.69021739e-02  6.96388257e-02  1.24606437e+02  8.67381082e+01  6.72373111e+01  5.53642418e+01 
 1.30000000e+00  7.98152718e-04  1.62577730e-03  2.64959979e-03  3.82074348e-03  3.23729049e-02  4.66066870e-02  6.01949224e-02  7.33065448e-02  4.05597878e+01  2.86673255e+01  2.27184961e+01  1.91864608e+01 
 1.35000000e+00  2.12181265e-03  4.03060147e-03  6.19249744e-03  8.51981048e-03  3.38486612e-02  4.82832045e-02  6.20046379e-02  7.52180529e-02  1.59527097e+01  1.19791562e+01  1.00128645e+01  8.82860635e+00 
 1.40000000e+00  4.33820430e-03  7.61530465e-03  1.11196274e-02  1.47612393e-02  3.46058823e-02  4.90946575e-02  6.28649592e-02  7.61253873e-02  7.97700613e+00  6.44684090e+00  5.65351312e+00  5.15711355e+00 
 1.45000000e+00  7.16400728e-03  1.19108515e-02  1.68357512e-02  2.18590201e-02  3.49754166e-02  4.95000342e-02  6.33058825e-02  7.66008206e-02  4.88210232e+00  4.15587702e+00  3.76020540e+00  3.50431174e+00 
 1.50000000e+00  1.03299822e-02  1.65989499e-02  2.29909324e-02  2.94386961e-02  3.51746792e-02  4.97280534e-02  6.35610495e-02  7.68817017e-02  3.40510551e+00  2.99585538e+00  2.76461383e+00  2.61158651e+00 
 1.55000000e+00  1.36909666e-02  2.15185667e-02  2.94106215e-02  3.73133921e-02  3.52947891e-02  4.98704270e-02  6.37239688e-02  7.70639092e-02  2.57796182e+00  2.31755338e+00  2.16669915e+00  2.06531502e+00 
 1.60000000e+00  1.71703894e-02  2.65833242e-02  3.59995646e-02  4.53796679e-02  3.53745617e-02  4.99674067e-02  6.38367289e-02  7.71914617e-02  2.06020731e+00  1.87965231e+00  1.77326392e+00  1.70101425e+00 
