 v-sweep         (dc1.i(vib_v))  (dc2.i(vib_v))  (dc3.i(vib_v))  (dc4.i(vib_v))  (dc5.i(vib_v))  (dc6.i(vib_v))  (dc7.i(vib_v))  (dc8.i(vib_v))  (dc1.i(vic_v))  (dc2.i(vic_v))  (dc3.i(vic_v))  (dc4.i(vic_v))  (dc5.i(vic_v))  (dc6.i(vic_v))  (dc7.i(vic_v))  (dc8.i(vic_v))  dc1.i(vic_v)/dc1.i(vib_v) dc2.i(vic_v)/dc2.i(vib_v) dc3.i(vic_v)/dc3.i(vib_v) dc4.i(vic_v)/dc4.i(vib_v) dc5.i(vic_v)/dc5.i(vib_v) dc6.i(vic_v)/dc6.i(vib_v) dc7.i(vic_v)/dc7.i(vib_v) dc8.i(vic_v)/dc8.i(vib_v)
 1.00000000e-01  2.02131890e-13  2.04257257e-13  2.06389256e-13  2.08521505e-13  2.10643044e-13  2.12797127e-13  2.14914555e-13  2.17049967e-13  1.03093633e-13  1.05745884e-13  1.09378783e-13  1.11488294e-13  1.14690745e-13  1.16813819e-13  1.20898698e-13  1.22563021e-13  5.10031508e-01  5.17709313e-01  5.29963552e-01  5.34660895e-01  5.44479145e-01  5.48944531e-01  5.62543091e-01  5.64676523e-01 
 1.50000000e-01  3.04545319e-13  3.09072733e-13  3.13617548e-13  3.18154223e-13  3.22706949e-13  3.27246224e-13  3.31778530e-13  3.36301924e-13  1.55565382e-13  1.60360061e-13  1.68161512e-13  1.71569261e-13  1.78232639e-13  1.81767509e-13  1.91091720e-13  1.93316176e-13  5.10811932e-01  5.18842472e-01  5.36199308e-01  5.39264447e-01  5.52304929e-01  5.55445703e-01  5.75961681e-01  5.74829231e-01 
 2.00000000e-01  4.16974519e-13  4.33946172e-13  4.50843510e-13  4.67914582e-13  4.84883493e-13  5.01791138e-13  5.18625717e-13  5.35559516e-13  2.55981119e-13  3.04278057e-13  3.99705306e-13  4.28402784e-13  5.07397960e-13  5.38738967e-13  6.58979532e-13  6.70494557e-13  6.13901106e-01  7.01188480e-01  8.86572163e-01  9.15557668e-01  1.04643274e+00  1.07363189e+00  1.27062641e+00  1.25195153e+00 
 2.50000000e-01  5.45778941e-13  5.91433319e-13  6.36672739e-13  6.83115449e-13  7.28909026e-13  7.74059411e-13  8.19173990e-13  8.64678439e-13  6.10642555e-13  9.21844399e-13  1.54653819e-12  1.72817682e-12  2.24410888e-12  2.44356081e-12  3.23370349e-12  3.30149819e-12  1.11884595e+00  1.55866159e+00  2.42909440e+00  2.52984590e+00  3.07872285e+00  3.15681300e+00  3.94751729e+00  3.81818031e+00 
 3.00000000e-01  7.24471021e-13  8.48045038e-13  9.69246066e-13  1.09783548e-12  1.22216233e-12  1.34270586e-12  1.46302998e-12  1.58566374e-12  2.68387131e-12  4.74101980e-12  8.88052717e-12  1.00778362e-11  1.34954422e-11  1.48112780e-11  2.00502128e-11  2.04917596e-11  3.70459443e+00  5.59052831e+00  9.16230406e+00  9.17973265e+00  1.10422665e+01  1.10309178e+01  1.37045809e+01  1.29231432e+01 
 3.50000000e-01  1.05023188e-12  1.39495392e-12  1.72455860e-12  2.10141747e-12  2.45046661e-12  2.77553757e-12  3.10025926e-12  3.43812630e-12  1.61699300e-11  2.98216839e-11  5.73026986e-11  6.52449787e-11  8.79324089e-11  9.66619047e-11  1.31444925e-10  1.34368574e-10  1.53965332e+01  2.13782574e+01  3.32274580e+01  3.10480804e+01  3.58839449e+01  3.48263723e+01  4.23980427e+01  3.90819191e+01 
 4.00000000e-01  1.86463336e-12  2.89422191e-12  3.82726816e-12  5.06202460e-12  6.11892329e-12  7.02294918e-12  7.92496365e-12  8.91026433e-12  1.05444910e-10  1.96093148e-10  3.78578384e-10  4.31312103e-10  5.81964725e-10  6.39926312e-10  8.70902968e-10  8.90309382e-10  5.65499428e+01  6.77533216e+01  9.89160854e+01  8.52054538e+01  9.51090082e+01  9.11193141e+01  1.09893623e+02  9.99195252e+01 
 4.50000000e-01  4.61414527e-12  8.10453930e-12  1.09789116e-11  1.57788110e-11  1.94434382e-11  2.21321622e-11  2.48098105e-11  2.80179318e-11  6.97987830e-10  1.29992645e-09  2.51170718e-09  2.86187577e-09  3.86227313e-09  4.24715721e-09  5.78094495e-09  5.90980477e-09  1.51271317e+02  1.60394860e+02  2.28775608e+02  1.81374616e+02  1.98641469e+02  1.91899787e+02  2.33010444e+02  2.10929372e+02 
 5.00000000e-01  1.66022007e-11  3.07764290e-11  4.10201042e-11  6.35508335e-11  7.88367253e-11  8.78951397e-11  9.68830244e-11  1.09255728e-10  4.63221879e-09  8.62915316e-09  1.66754897e-08  1.90006446e-08  2.56433822e-08  2.81990391e-08  3.83835381e-08  3.92392017e-08  2.79012335e+02  2.80381885e+02  4.06519926e+02  2.98983405e+02  3.25272037e+02  3.20825921e+02  3.96184350e+02  3.59150063e+02 
 5.50000000e-01  7.93692632e-11  1.48526049e-10  1.92598880e-10  3.15082969e-10  3.91333147e-10  4.27841844e-10  4.63901018e-10  5.21563151e-10  3.07529987e-08  5.72909362e-08  1.10714191e-07  1.26152347e-07  1.70256812e-07  1.87224818e-07  2.54844428e-07  2.60526879e-07  3.87467358e+02  3.85729889e+02  5.74843382e+02  4.00378186e+02  4.35068721e+02  4.37602869e+02  5.49350871e+02  4.99511666e+02 
 6.00000000e-01  4.44658504e-10  8.29982353e-10  1.05519431e-09  1.78079068e-09  2.21135548e-09  2.38830403e-09  2.56239946e-09  2.87442807e-09  2.04143141e-07  3.80315764e-07  7.34923371e-07  8.37415300e-07  1.13018240e-06  1.24280448e-06  1.69164890e-06  1.72942547e-06  4.59100949e+02  4.58221506e+02  6.96481555e+02  4.70249148e+02  5.11081284e+02  5.20371134e+02  6.60181573e+02  6.01658984e+02 
 6.50000000e-01  2.68265879e-09  4.99375257e-09  6.28159889e-09  1.07624540e-08  1.33611574e-08  1.43413453e-08  1.53039394e-08  1.71497517e-08  1.35411713e-06  2.52301448e-06  4.87390000e-06  5.55416657e-06  7.49572989e-06  8.24207605e-06  1.12179584e-05  1.14709530e-05  5.04766814e+02  5.05234179e+02  7.75901182e+02  5.16068785e+02  5.61009027e+02  5.74707314e+02  7.33011161e+02  6.68869920e+02 
 7.00000000e-01  1.66665311e-08  3.09990555e-08  3.87409029e-08  6.68476691e-08  8.29699457e-08  8.87626548e-08  9.44687058e-08  1.05933523e-07  8.94329649e-06  1.66767973e-05  3.21472481e-05  3.66580954e-05  4.94631995e-05  5.43621723e-05  7.39565769e-05  7.57318938e-05  5.36602155e+02  5.37977596e+02  8.29801212e+02  5.48382552e+02  5.96158032e+02  6.12444191e+02  7.82868530e+02  7.14900169e+02 
 7.50000000e-01  1.02939189e-07  1.92190169e-07  2.37065896e-07  4.11298904e-07  5.10190242e-07  5.43196441e-07  5.76678564e-07  6.51509632e-07  5.75108201e-05  1.07787114e-04  2.05045643e-04  2.34754027e-04  3.16388992e-04  3.46687323e-04  4.70354722e-04  4.85873902e-04  5.58687327e+02  5.60835729e+02  8.64931003e+02  5.70762589e+02  6.20139245e+02  6.38235631e+02  8.15627199e+02  7.45766260e+02 
 8.00000000e-01  5.77615355e-07  1.10134908e-06  1.29115501e-06  2.26705951e-06  2.80653519e-06  2.93784933e-06  3.10124343e-06  3.62202398e-06  3.22437118e-04  6.18502679e-04  1.11026683e-03  1.29242315e-03  1.73342484e-03  1.87570018e-03  2.51697111e-03  2.69648760e-03  5.58221168e+02  5.61586414e+02  8.59902044e+02  5.70087881e+02  6.17638733e+02  6.38460306e+02  8.11600625e+02  7.44469839e+02 
 8.50000000e-01  2.65927148e-06  5.41645567e-06  6.34465411e-06  9.97118746e-06  1.30882321e-05  1.19463646e-05  1.41580895e-05  1.75181536e-05  1.17114804e-03  2.34019528e-03  3.64636952e-03  4.55321044e-03  5.89386112e-03  6.52610842e-03  8.25057156e-03  9.43039145e-03  4.40401837e+02  4.32052882e+02  5.74715258e+02  4.56636730e+02  4.50317589e+02  5.46284047e+02  5.82746110e+02  5.38321084e+02 
 9.00000000e-01  1.82699767e-05  3.94098014e-05  4.57780180e-05  6.63849348e-05  8.78860138e-05  7.93265556e-05  9.92359994e-05  1.28679259e-04  1.88313177e-03  3.81615536e-03  5.62639965e-03  7.27264132e-03  9.22952556e-03  1.05346181e-02  1.27593517e-02  1.49187898e-02  1.03072478e+02  9.68326464e+01  1.22906144e+02  1.09552587e+02  1.05017001e+02  1.32800650e+02  1.28575837e+02  1.15937797e+02 
 9.50000000e-01  8.70144416e-05  1.95036085e-04  2.16682176e-04  3.04867920e-04  4.06273391e-04  3.57517431e-04  4.56232380e-04  6.17747949e-04  2.69076920e-03  5.50954826e-03  7.97607412e-03  1.03767522e-02  1.31585005e-02  1.49590284e-02  1.80599863e-02  2.13495369e-02  3.09232485e+01  2.82488661e+01  3.68100149e+01  3.40368780e+01  3.23882902e+01  4.18413959e+01  3.95850604e+01  3.45602716e+01 
 1.00000000e+00  3.51363751e-04  8.16114323e-04  8.75011337e-04  1.18287780e-03  1.59608189e-03  1.34708154e-03  1.78205735e-03  2.51765449e-03  3.38852387e-03  6.89931893e-03  1.00821814e-02  1.32256522e-02  1.66989403e-02  1.92524200e-02  2.30320638e-02  2.70236700e-02  9.64391989e+00  8.45386331e+00  1.15223437e+01  1.11809117e+01  1.04624584e+01  1.42919485e+01  1.29244234e+01  1.07336690e+01 
 1.05000000e+00  1.12452722e-03  2.61305388e-03  2.88791880e-03  3.77461175e-03  5.09236479e-03  4.35942495e-03  5.86431269e-03  8.25718973e-03  3.71856412e-03  7.49545294e-03  1.11313541e-02  1.47220105e-02  1.84840766e-02  2.17994683e-02  2.57400325e-02  2.97522199e-02  3.30678001e+00  2.86846475e+00  3.85445536e+00  3.90027148e+00  3.62976286e+00  5.00053759e+00  4.38926672e+00  3.60318956e+00 
 1.10000000e+00  2.51519976e-03  5.75379102e-03  6.69246396e-03  8.61313094e-03  1.15177087e-02  1.04115600e-02  1.38683104e-02  1.88931320e-02  3.82630919e-03  7.67975672e-03  1.14763183e-02  1.52384966e-02  1.90846959e-02  2.27464191e-02  2.66793560e-02  3.06309906e-02  1.52127447e+00  1.33472987e+00  1.71481212e+00  1.76921688e+00  1.65698720e+00  2.18472727e+00  1.92376398e+00  1.62127648e+00 
 1.15000000e+00  4.31896427e-03  9.76910929e-03  1.17443538e-02  1.50175686e-02  1.99487444e-02  1.87682859e-02  2.47257714e-02  3.28759303e-02  3.86548626e-03  7.74632762e-03  1.15985415e-02  1.54260044e-02  1.93022119e-02  2.30866765e-02  2.70119799e-02  3.09424592e-02  8.95003066e-01  7.92941033e-01  9.87584473e-01  1.02719720e+00  9.67590313e-01  1.23008977e+00  1.09246258e+00  9.41188856e-01 
 1.20000000e+00  6.35628570e-03  1.42765090e-02  1.75023530e-02  2.23110636e-02  2.95113051e-02  2.84503859e-02  3.72099110e-02  4.87429084e-02  3.88351020e-03  7.77724279e-03  1.16533995e-02  1.55110397e-02  1.94016050e-02  2.32365001e-02  2.71592586e-02  3.10836092e-02  6.10971625e-01  5.44758020e-01  6.65819018e-01  6.95217405e-01  6.57429581e-01  8.16737605e-01  7.29893136e-01  6.37705264e-01 
 1.25000000e+00  8.53208397e-03  1.90794628e-02  2.36743745e-02  3.01269573e-02  3.97441705e-02  3.89003979e-02  5.06422307e-02  6.57274000e-02  3.89339349e-03  7.79425193e-03  1.16830020e-02  1.55571619e-02  1.94556109e-02  2.33159911e-02  2.72378318e-02  3.11599072e-02  4.56323860e-01  4.08515272e-01  4.93487253e-01  5.16386762e-01  4.89521120e-01  5.99376674e-01  5.37848185e-01  4.74077890e-01 
 1.30000000e+00  1.07970439e-02  2.40735126e-02  3.01105475e-02  3.82765160e-02  5.04053009e-02  4.98338943e-02  6.46741395e-02  8.34250065e-02  3.89948673e-03  7.80478318e-03  1.17010498e-02  1.55853676e-02  1.94887368e-02  2.33638445e-02  2.72853886e-02  3.12065989e-02  3.61162439e-01  3.24206247e-01  3.88603024e-01  4.07178323e-01  3.86640620e-01  4.68834411e-01  4.21890245e-01  3.74067683e-01 
 1.35000000e+00  1.31232223e-02  2.91995112e-02  3.67267055e-02  4.66536550e-02  6.13593240e-02  6.10934371e-02  7.91126496e-02  1.01610668e-01  3.90357013e-03  7.81186300e-03  1.17130490e-02  1.56041566e-02  1.95108490e-02  2.33953558e-02  2.73168219e-02  3.12377143e-02  2.97455156e-01  2.67534033e-01  3.18924577e-01  3.34468042e-01  3.17976921e-01  3.82943846e-01  3.45290192e-01  3.07425537e-01 
 1.40000000e+00  1.54937180e-02  3.44214262e-02  4.34723838e-02  5.51947162e-02  7.25246532e-02  7.25856657e-02  9.38423968e-02  1.20148488e-01  3.90647711e-03  7.81691597e-03  1.17215410e-02  1.56174704e-02  1.95265436e-02  2.34174930e-02  2.73389694e-02  3.12597749e-02  2.52132968e-01  2.27094483e-01  2.69631891e-01  2.82952274e-01  2.69240082e-01  3.22618698e-01  2.91328550e-01  2.60176181e-01 
 1.45000000e+00  1.78976425e-02  3.97159366e-02  5.03152973e-02  6.38589206e-02  8.38489511e-02  8.42514446e-02  1.08790011e-01  1.38951281e-01  3.90864294e-03  7.82068861e-03  1.17278394e-02  1.56273532e-02  1.95382089e-02  2.34338159e-02  2.73553381e-02  3.12761600e-02  2.18388703e-01  1.96915628e-01  2.33086955e-01  2.44716840e-01  2.33016737e-01  2.78141414e-01  2.51450826e-01  2.25087237e-01 
 1.50000000e+00  2.03274318e-02  4.50671754e-02  5.72336935e-02  7.26187765e-02  9.52968653e-02  9.60512576e-02  1.23906276e-01  1.57960150e-01  3.91031802e-03  7.82360583e-03  1.17326834e-02  1.56349582e-02  1.95471952e-02  2.34463096e-02  2.73678909e-02  3.12887762e-02  1.92366555e-01  1.73598762e-01  2.04996091e-01  2.15301867e-01  2.05118973e-01  2.44102057e-01  2.20875745e-01  1.98080189e-01 
 1.55000000e+00  2.27783108e-02  5.04639013e-02  6.42119298e-02  8.14549510e-02  1.06842925e-01  1.07957516e-01  1.39156727e-01  1.77133610e-01  3.91164385e-03  7.82592562e-03  1.17365237e-02  1.56409803e-02  1.95543280e-02  2.34561595e-02  2.73778035e-02  3.12987731e-02  1.71726687e-01  1.55079679e-01  1.82777932e-01  1.92020008e-01  1.83019400e-01  2.17272131e-01  1.96740784e-01  1.76695846e-01 
 1.60000000e+00  2.52462067e-02  5.58978803e-02  7.12397068e-02  9.03533702e-02  1.18470311e-01  1.19950254e-01  1.54515830e-01  1.96441423e-01  3.91272117e-03  7.82781291e-03  1.17396290e-02  1.56458614e-02  1.95601014e-02  2.34641136e-02  2.73858287e-02  3.13068813e-02  1.54982537e-01  1.40037741e-01  1.64790530e-01  1.73163009e-01  1.65105513e-01  1.95615372e-01  1.77236395e-01  1.59370059e-01 
