 v-sweep         (dc1.i(vib))    (dc2.i(vib))    (dc3.i(vib))    (dc4.i(vib))    (dc5.i(vib))    (dc6.i(vib))    (dc7.i(vib))    (dc8.i(vib))    (dc9.i(vib))    (dc10.i(vib))   (dc1.i(vic))    (dc2.i(vic))    (dc3.i(vic))    (dc4.i(vic))    (dc5.i(vic))    (dc6.i(vic))    (dc7.i(vic))    (dc8.i(vic))    (dc9.i(vic))    (dc10.i(vic))   dc1.i(vic)/dc1.i(vib) dc2.i(vic)/dc2.i(vib) dc3.i(vic)/dc3.i(vib) dc4.i(vic)/dc4.i(vib) dc5.i(vic)/dc5.i(vib) dc6.i(vic)/dc6.i(vib) dc7.i(vic)/dc7.i(vib) dc8.i(vic)/dc8.i(vib) dc9.i(vic)/dc9.i(vib) dc10.i(vic)/dc10.i(vib)
 1.00000000e-01  2.00592341e-13  2.01186160e-13  2.01782390e-13  2.02371629e-13  2.02959229e-13  2.03555208e-13  2.04152043e-13  2.04743957e-13  2.05341529e-13  2.05930265e-13  1.02412897e-13  1.04542763e-13  1.06611861e-13  1.08640234e-13  1.10638849e-13  1.12616006e-13  1.14571387e-13  1.16539444e-13  1.18486684e-13  1.20407530e-13  5.10552378e-01  5.19631984e-01  5.28350671e-01  5.36835298e-01  5.45128444e-01  5.53245518e-01  5.61206171e-01  5.69196012e-01  5.77022510e-01  5.84700505e-01 
 1.50000000e-01  3.01263319e-13  3.02525417e-13  3.03788923e-13  3.05051957e-13  3.06325378e-13  3.07575388e-13  3.08846953e-13  3.10109713e-13  3.11372024e-13  3.12642037e-13  1.53561465e-13  1.56826488e-13  1.60030749e-13  1.63192136e-13  1.66319896e-13  1.69423076e-13  1.72509069e-13  1.75608139e-13  1.78682923e-13  1.81734862e-13  5.09725065e-01  5.18391114e-01  5.26782701e-01  5.34965052e-01  5.42951737e-01  5.50834307e-01  5.58558429e-01  5.66277455e-01  5.73856704e-01  5.81287354e-01 
 2.00000000e-01  4.04744316e-13  4.09487497e-13  4.14227529e-13  4.18973497e-13  4.23711884e-13  4.28445378e-13  4.33201419e-13  4.37953838e-13  4.42700904e-13  4.47421157e-13  2.25036656e-13  2.49780538e-13  2.74461597e-13  2.99103904e-13  3.23714453e-13  3.48300235e-13  3.72860610e-13  3.97447406e-13  4.22017656e-13  4.46547927e-13  5.55997075e-01  6.09983308e-01  6.62586568e-01  7.13896956e-01  7.63996634e-01  8.12939648e-01  8.60709576e-01  9.07509815e-01  9.53279409e-01  9.98048305e-01 
 2.50000000e-01  5.12869696e-13  5.25739529e-13  5.38604383e-13  5.51466841e-13  5.64339761e-13  5.77215533e-13  5.90072918e-13  6.02952995e-13  6.15815686e-13  6.28680879e-13  4.04471328e-13  5.58651416e-13  7.12763182e-13  8.66845057e-13  1.02089544e-12  1.17491593e-12  1.32891081e-12  1.48294197e-12  1.63692617e-12  1.79091250e-12  7.88643453e-01  1.06260113e+00  1.32335199e+00  1.57188972e+00  1.80900853e+00  2.03548911e+00  2.25211286e+00  2.45946531e+00  2.65814303e+00  2.84868296e+00 
 3.00000000e-01  6.35432355e-13  6.70866911e-13  7.06293510e-13  7.41729696e-13  7.77171126e-13  8.12591273e-13  8.48005915e-13  8.83447644e-13  9.18855413e-13  9.54325542e-13  1.31086616e-12  2.32144475e-12  3.33195965e-12  4.34242898e-12  5.35285320e-12  6.36328298e-12  7.37366343e-12  8.38406577e-12  9.39447612e-12  1.04048680e-11  2.06295155e+00  3.46036555e+00  4.71752835e+00  5.85446289e+00  6.88761204e+00  7.83085321e+00  8.69529717e+00  9.49016710e+00  1.02241071e+01  1.09028497e+01 
 3.50000000e-01  8.02149317e-13  9.04299627e-13  1.00644919e-12  1.10859598e-12  1.21075484e-12  1.31290557e-12  1.41506672e-12  1.51721073e-12  1.61936299e-12  1.72149917e-12  7.02728089e-12  1.37042608e-11  2.03811902e-11  2.70580840e-11  3.37349345e-11  4.04117726e-11  4.70885516e-11  5.37653931e-11  6.04421908e-11  6.71189531e-11  8.76056458e+00  1.51545576e+01  2.02505903e+01  2.44075249e+01  2.78627294e+01  3.07804107e+01  3.32765594e+01  3.54369977e+01  3.73246710e+01  3.89886642e+01 
 4.00000000e-01  1.12290649e-12  1.44580795e-12  1.76871417e-12  2.09163497e-12  2.41453253e-12  2.73742668e-12  3.06032583e-12  3.38326277e-12  3.70614291e-12  4.02903614e-12  4.45692092e-11  8.87381168e-11  1.32906983e-10  1.77075802e-10  2.21244574e-10  2.65413336e-10  3.09582048e-10  3.53750826e-10  3.97919567e-10  4.42088229e-10  3.96909355e+01  6.13761438e+01  7.51432797e+01  8.46590366e+01  9.16303969e+01  9.69572399e+01  1.01159832e+02  1.04559075e+02  1.07367572e+02  1.09725555e+02 
 4.50000000e-01  2.08138030e-12  3.26274998e-12  4.44412945e-12  5.62552751e-12  6.80689124e-12  7.98825537e-12  9.16965668e-12  1.03510212e-11  1.15324247e-11  1.27137382e-11  2.92679690e-10  5.84909078e-10  8.77138426e-10  1.16936773e-09  1.46159699e-09  1.75382622e-09  2.04605539e-09  2.33828467e-09  2.63051388e-09  2.92274304e-09  1.40618075e+02  1.79268740e+02  1.97370134e+02  2.07868102e+02  2.14723129e+02  2.19550595e+02  2.23133260e+02  2.25898936e+02  2.28097208e+02  2.29888566e+02 
 5.00000000e-01  6.14355116e-12  1.12870998e-11  1.64306387e-11  2.15741828e-11  2.67177220e-11  3.18613039e-11  3.70048515e-11  4.21483573e-11  4.72919067e-11  5.24354830e-11  1.93393014e-09  3.86735998e-09  5.80078978e-09  7.73421952e-09  9.66764925e-09  1.16010789e-08  1.35345085e-08  1.54679382e-08  1.74013679e-08  1.93347975e-08  3.14790272e+02  3.42635403e+02  3.53047127e+02  3.58494206e+02  3.61844069e+02  3.64111869e+02  3.65749570e+02  3.66987926e+02  3.67956573e+02  3.68734994e+02 
 5.50000000e-01  2.71156128e-11  5.31312147e-11  7.91468340e-11  1.05162437e-10  1.31178078e-10  1.57193651e-10  1.83209258e-10  2.09224923e-10  2.35240497e-10  2.61256105e-10  1.27916770e-08  2.55828036e-08  3.83739301e-08  5.11650566e-08  6.39561830e-08  7.67473094e-08  8.95384358e-08  1.02329562e-07  1.15120688e-07  1.27911815e-07  4.71745819e+02  4.81502329e+02  4.84844790e+02  4.86533578e+02  4.87552373e+02  4.88234156e+02  4.88722222e+02  4.89088779e+02  4.89374448e+02  4.89603161e+02 
 6.00000000e-01  1.46186618e-10  2.91173223e-10  4.36159818e-10  5.81146440e-10  7.26133068e-10  8.71119650e-10  1.01610617e-09  1.16109276e-09  1.30607940e-09  1.45106606e-09  8.46107179e-08  1.69220833e-07  2.53830946e-07  3.38441058e-07  4.23051170e-07  5.07661281e-07  5.92271392e-07  6.76881502e-07  7.61491612e-07  8.46101722e-07  5.78785659e+02  5.81168938e+02  5.81967746e+02  5.82367945e+02  5.82608324e+02  5.82768717e+02  5.82883371e+02  5.82969359e+02  5.83036233e+02  5.83089733e+02 
 6.50000000e-01  8.51702248e-10  1.70210427e-09  2.55250620e-09  3.40290810e-09  4.25330997e-09  5.10371182e-09  5.95411363e-09  6.80451537e-09  7.65491718e-09  8.50531895e-09  5.59293034e-07  1.11858530e-06  1.67787751e-06  2.23716969e-06  2.79646184e-06  3.35575397e-06  3.91504609e-06  4.47433819e-06  5.03363028e-06  5.59292235e-06  6.56676715e+02  6.57177893e+02  6.57345125e+02  6.57428770e+02  6.57478965e+02  6.57512431e+02  6.57536340e+02  6.57554278e+02  6.57568221e+02  6.57579379e+02 
 7.00000000e-01  5.09879804e-09  1.01961893e-08  1.52935780e-08  2.03909649e-08  2.54883506e-08  3.05857352e-08  3.56831190e-08  4.07805019e-08  4.58778843e-08  5.09752660e-08  3.68220150e-06  7.36439745e-06  1.10465914e-05  1.47287841e-05  1.84109759e-05  2.20931668e-05  2.57753570e-05  2.94575467e-05  3.31397359e-05  3.68219246e-05  7.22170495e+02  7.22269589e+02  7.22302620e+02  7.22319134e+02  7.22329042e+02  7.22335645e+02  7.22340361e+02  7.22343898e+02  7.22346648e+02  7.22348847e+02 
 7.50000000e-01  3.03531899e-08  6.07046541e-08  9.10560284e-08  1.21407343e-07  1.51758613e-07  1.82109846e-07  2.12461049e-07  2.42812225e-07  2.73163379e-07  3.03514511e-07  2.36436390e-05  4.72870971e-05  7.09304826e-05  9.45738200e-05  1.18217121e-04  1.41860393e-04  1.65503640e-04  1.89146866e-04  2.12790073e-04  2.36433264e-04  7.78950716e+02  7.78969879e+02  7.78976240e+02  7.78979406e+02  7.78981298e+02  7.78982554e+02  7.78983447e+02  7.78984113e+02  7.78984630e+02  7.78985041e+02 
 8.00000000e-01  1.65486961e-07  3.30966591e-07  4.96443922e-07  6.61919727e-07  8.27394381e-07  9.92868106e-07  1.15834105e-06  1.32381333e-06  1.48928501e-06  1.65475616e-06  1.33308464e-04  2.66612345e-04  3.99914384e-04  5.33215201e-04  6.66515094e-04  7.99814244e-04  9.33112768e-04  1.06641075e-03  1.19970827e-03  1.33300535e-03  8.05552676e+02  8.05556672e+02  8.05558023e+02  8.05558709e+02  8.05559126e+02  8.05559408e+02  8.05559612e+02  8.05559767e+02  8.05559890e+02  8.05559989e+02 
 8.50000000e-01  6.82364245e-07  1.36465876e-06  2.04692596e-06  2.72917503e-06  3.41141041e-06  4.09363476e-06  4.77584985e-06  5.45805695e-06  6.14025702e-06  6.82245080e-06  5.13515300e-04  1.02698473e-03  1.54043572e-03  2.05387448e-03  2.56730400e-03  3.08072607e-03  3.59414190e-03  4.10755233e-03  4.62095802e-03  5.13435947e-03  7.52553060e+02  7.52557897e+02  7.52560546e+02  7.52562387e+02  7.52563804e+02  7.52564958e+02  7.52565933e+02  7.52566778e+02  7.52567524e+02  7.52568192e+02 
 9.00000000e-01  1.95027278e-06  3.90019221e-06  5.84997048e-06  7.79965502e-06  9.74926882e-06  1.16988256e-05  1.36483345e-05  1.55978022e-05  1.75472335e-05  1.94966323e-05  1.24659811e-03  2.49301862e-03  3.73936779e-03  4.98566958e-03  6.23193562e-03  7.47817284e-03  8.72438588e-03  9.97057804e-03  1.12167518e-02  1.24629092e-02  6.39191669e+02  6.39204041e+02  6.39211395e+02  6.39216679e+02  6.39220821e+02  6.39224235e+02  6.39227142e+02  6.39229677e+02  6.39231925e+02  6.39233947e+02 
 9.50000000e-01  4.24808606e-06  8.49507363e-06  1.27416208e-05  1.69878757e-05  2.12339100e-05  2.54797664e-05  2.97254735e-05  3.39710519e-05  3.82165170e-05  4.24618807e-05  2.24001743e-03  4.47962058e-03  6.71905731e-03  8.95838356e-03  1.11976264e-02  1.34368021e-02  1.56759213e-02  1.79149919e-02  2.01540196e-02  2.23930091e-02  5.27300390e+02  5.27319806e+02  5.27331443e+02  5.27339834e+02  5.27346421e+02  5.27351855e+02  5.27356488e+02  5.27360529e+02  5.27364115e+02  5.27367340e+02 
 1.00000000e+00  7.76368514e-06  1.55248001e-05  2.32848839e-05  3.10442832e-05  3.88031657e-05  4.65616319e-05  5.43197486e-05  6.20775638e-05  6.98351137e-05  7.75924264e-05  3.40077813e-03  6.80080307e-03  1.02005255e-02  1.36000471e-02  1.69994171e-02  2.03986650e-02  2.37978103e-02  2.71968671e-02  3.05958461e-02  3.39947556e-02  4.38036586e+02  4.38060588e+02  4.38074999e+02  4.38085397e+02  4.38093563e+02  4.38100301e+02  4.38106046e+02  4.38111058e+02  4.38115506e+02  4.38119507e+02 
 1.05000000e+00  1.26191647e-05  2.52332892e-05  3.78453909e-05  5.04561498e-05  6.30658953e-05  7.56748241e-05  8.82830674e-05  1.00890719e-04  1.13497851e-04  1.26104517e-04  4.67214727e-03  9.34310291e-03  1.40135800e-02  1.86837394e-02  2.33536590e-02  2.80233854e-02  3.26929495e-02  3.73623738e-02  4.20316749e-02  4.67008660e-02  3.70242196e+02  3.70268926e+02  3.70284985e+02  3.70296573e+02  3.70305676e+02  3.70313188e+02  3.70319592e+02  3.70325180e+02  3.70330139e+02  3.70334599e+02 
 1.10000000e+00  1.88939235e-05  3.77790545e-05  5.66606565e-05  7.55399162e-05  9.44174081e-05  1.13293475e-04  1.32168347e-04  1.51042187e-04  1.69915119e-04  1.88787241e-04  6.02014121e-03  1.20385548e-02  1.80562746e-02  2.40735339e-02  3.00904457e-02  3.61070773e-02  4.21234738e-02  4.81396675e-02  5.41556827e-02  6.01715384e-02  3.18628431e+02  3.18656858e+02  3.18673940e+02  3.18686268e+02  3.18695951e+02  3.18703943e+02  3.18710756e+02  3.18716701e+02  3.18721976e+02  3.18726722e+02 
 1.15000000e+00  2.72147225e-05  5.44085046e-05  8.15939465e-05  1.08773843e-04  1.35949559e-04  1.63121907e-04  1.90291429e-04  2.17458516e-04  2.44623459e-04  2.71786488e-04  7.40185407e-03  1.48015446e-02  2.22003647e-02  2.95986075e-02  3.69964144e-02  4.43938701e-02  5.17910310e-02  5.91879375e-02  6.65846201e-02  7.39811026e-02  2.71979773e+02  2.72044686e+02  2.72083478e+02  2.72111443e+02  2.72133391e+02  2.72151491e+02  2.72166914e+02  2.72180361e+02  2.72192292e+02  2.72203019e+02 
 1.20000000e+00  4.87448491e-05  9.73797327e-05  1.45979275e-04  1.94552217e-04  2.43105106e-04  2.91641846e-04  3.40165044e-04  3.88676566e-04  4.37177816e-04  4.85669892e-04  8.54817723e-03  1.70938739e-02  2.56385610e-02  3.41825841e-02  4.27261064e-02  5.12692251e-02  5.98120052e-02  6.83544933e-02  7.68967246e-02  8.54387262e-02  1.75365754e+02  1.75538312e+02  1.75631514e+02  1.75698765e+02  1.75751580e+02  1.75795160e+02  1.75832309e+02  1.75864715e+02  1.75893473e+02  1.75919339e+02 
 1.25000000e+00  9.37839975e-05  1.87254247e-04  2.80599366e-04  3.73861633e-04  4.67061483e-04  5.60211096e-04  6.53318595e-04  7.46389798e-04  8.39429083e-04  9.32439864e-04  9.57806816e-03  1.91519015e-02  2.87240420e-02  3.82950606e-02  4.78652336e-02  5.74347256e-02  6.70036466e-02  7.65720752e-02  8.61400708e-02  9.57076795e-02  1.02129024e+02  1.02277528e+02  1.02366739e+02  1.02431106e+02  1.02481655e+02  1.02523363e+02  1.02558915e+02  1.02589927e+02  1.02617449e+02  1.02642200e+02 
 1.30000000e+00  1.69681786e-04  3.38528966e-04  5.07044419e-04  6.75340545e-04  8.43471591e-04  1.01146987e-03  1.17935690e-03  1.34714812e-03  1.51485510e-03  1.68248690e-03  1.06058207e-02  2.12044909e-02  3.18003104e-02  4.23942425e-02  5.29867530e-02  6.35781192e-02  7.41685262e-02  8.47581067e-02  9.53469602e-02  1.05935165e-01  6.25041788e+01  6.26371538e+01  6.27170110e+01  6.27746148e+01  6.28198431e+01  6.28571560e+01  6.28889575e+01  6.29166945e+01  6.29413071e+01  6.29634411e+01 
 1.35000000e+00  2.88409023e-04  5.74801688e-04  8.60397049e-04  1.14546619e-03  1.43013978e-03  1.71449553e-03  1.99858522e-03  2.28244586e-03  2.56610528e-03  2.84958518e-03  1.16107918e-02  2.32104685e-02  3.48057268e-02  4.63980634e-02  5.79882006e-02  6.95765688e-02  8.11634548e-02  9.27490640e-02  1.04333551e-01  1.15917036e-01  4.02580742e+01  4.03799588e+01  4.04530988e+01  4.05058339e+01  4.05472259e+01  4.05813649e+01  4.06104549e+01  4.06358222e+01  4.06583283e+01  4.06785649e+01 
 1.40000000e+00  4.67484340e-04  9.30391688e-04  1.39150161e-03  1.85142827e-03  2.31046698e-03  2.76879319e-03  3.22652359e-03  3.68374153e-03  4.14050964e-03  4.59687671e-03  1.25444447e-02  2.50732712e-02  3.75959094e-02  5.01144602e-02  6.26299367e-02  7.51429420e-02  8.76538779e-02  1.00163032e-01  1.12670620e-01  1.25176810e-01  2.68339357e+01  2.69491565e+01  2.70182291e+01  2.70679999e+01  2.71070469e+01  2.71392397e+01  2.71666627e+01  2.71905700e+01  2.72117757e+01  2.72308392e+01 
 1.45000000e+00  7.31136353e-04  1.45243306e-03  2.16989924e-03  2.88485174e-03  3.59792203e-03  4.30948450e-03  5.01978776e-03  5.72900925e-03  6.43728208e-03  7.14470989e-03  1.33494234e-02  2.66793529e-02  4.00015789e-02  5.33187216e-02  6.66320436e-02  7.99422958e-02  9.32499785e-02  1.06555449e-01  1.19858977e-01  1.33160771e-01  1.82584594e+01  1.83687315e+01  1.84347633e+01  1.84823091e+01  1.85195907e+01  1.85503152e+01  1.85764783e+01  1.85992803e+01  1.86195004e+01  1.86376736e+01 
 1.50000000e+00  1.10327929e-03  2.18805606e-03  3.26478014e-03  4.33657482e-03  5.40468664e-03  6.46985314e-03  7.53256335e-03  8.59316583e-03  9.65192180e-03  1.07090344e-02  1.39797589e-02  2.79365165e-02  4.18857923e-02  5.58295421e-02  6.97691390e-02  8.37054000e-02  9.76388687e-02  1.11569934e-01  1.25498888e-01  1.39425959e-01  1.26710970e+01  1.27677335e+01  1.28295905e+01  1.28741102e+01  1.29090072e+01  1.29377589e+01  1.29622366e+01  1.29835658e+01  1.30024767e+01  1.30194706e+01 
 1.55000000e+00  1.59388246e-03  3.15323628e-03  4.69931928e-03  6.23993018e-03  7.77169107e-03  9.29829943e-03  1.08206154e-02  1.23392515e-02  1.38546663e-02  1.53672162e-02  1.44253167e-02  2.88302266e-02  4.32271610e-02  5.76139824e-02  7.20004390e-02  8.63836954e-02  1.00764273e-01  1.15142543e-01  1.29518787e-01  1.43893223e-01  9.05042691e+00  9.14305940e+00  9.19860057e+00  9.23311331e+00  9.26444944e+00  9.29026818e+00  9.31224967e+00  9.33140417e+00  9.34838734e+00  9.36364926e+00 
 1.60000000e+00  2.18894882e-03  4.32356282e-03  6.43748007e-03  8.53810196e-03  1.06285258e-02  1.27170848e-02  1.47937839e-02  1.68647551e-02  1.89307147e-02  2.09922193e-02  1.47203252e-02  2.94228584e-02  4.41182895e-02  5.88087219e-02  7.34958790e-02  8.81718202e-02  1.02852414e-01  1.17530972e-01  1.32207740e-01  1.46882912e-01  6.72483754e+00  6.80523441e+00  6.85334774e+00  6.88779803e+00  6.91496453e+00  6.93333587e+00  6.95240748e+00  6.96902926e+00  6.98376909e+00  6.99701685e+00 
